(1557265716.818982) can0 0CFF0686#F22700F2FFFFFF5F
(1557265716.869006) can0 0CFF0686#F22700F2FFFFFF5F
(1557265716.882107) can0 1CFF6A27#FFFF00F7FFFFFFFF
(1557265716.882108) can0 0CFF0627#F2FF00F2FFFFFF3F
(1557265716.884498) can0 18EEFF86#0100811309870011
(1557265716.888023) can0 0CFF0686#F0FF00F2FFFFFF6F
(1557265716.888024) can0 18EEFF27#00002038001E0000
(1557265716.889235) can0 18F00527#FFFFFFFF202DFFFF
(1557265716.889236) can0 18FEF427#00FFFFFFFFFFFFFF
(1557265716.890423) can0 18FF6E27#FFFFFFFFFFFFFFFF
(1557265716.890424) can0 18FF7127#F0FFFFFFFFFFFFFF
(1557265716.891630) can0 0CFE4127#FFFFFFFFFFFFFFFF
(1557265716.898703) can0 10FF6527#FFFFFFFFFFFFFFFF
(1557265716.898704) can0 0CFF0627#F0FF00F2FFFFFF1F
(1557265716.931557) can0 10FF6586#F3FFFFF37FFFF0F3
(1557265716.931558) can0 18FEF186#FFFFFFF3CCFF1F20
(1557265716.940671) can0 18EEFF00#08CF600600000000
(1557265716.953296) can0 1CDD0027#8600000000000000
(1557265716.960671) can0 1CDC2700#DC00000000000000
(1557265716.962965) can0 0CF00400#FFFFFF0000FFFF72
(1557265716.962966) can0 0CFF6600#0000FF4F00FFFFFF
(1557265716.978685) can0 1CFF6A27#7FFF00F7FFFFFFFF
(1557265716.982950) can0 0CF00400#FFFFFF0000FFFF72
(1557265716.982951) can0 0CFF6600#0000FF4F00FFFFFF
(1557265716.984876) can0 10FF6527#FFFFFFCFFFFFFFFF
(1557265716.988712) can0 18F00527#FFFFFFFF202DFFFF
(1557265717.002886) can0 0CF00400#FFFFFF0000FFFF72
(1557265717.002888) can0 0CFF6600#0000FF4F00FFFFFF
(1557265717.013038) can0 18EEFF87#0100821309870011
(1557265717.013039) can0 18FEF100#FFFFFFDCFFFFF0FF
(1557265717.014189) can0 18FEF200#00000000662330FF
(1557265717.014190) can0 18FF6D00#31F131FFFFFFFFFF
(1557265717.020640) can0 18EEFF00#08CF600600000000
(1557265717.022984) can0 0CF00400#FFFFFF0000FFFF72
(1557265717.022985) can0 0CFF6600#0000FF4F00FFFFFF
(1557265717.026437) can0 10FF6587#4D57FFFDFFFFFFFF
(1557265717.026438) can0 18FEF187#FFFFFF7FFFFF0F8F
(1557265717.030185) can0 1CFF6A27#7FFC00F7FFFFFFFF
(1557265717.031700) can0 10FF6500#FFFFFFFF7FFFFFFD
(1557265717.031701) can0 18FEF186#FFFFFFF3CCFF2F10
(1557265717.042910) can0 0CF00400#FFFFFF0000FFFF72
(1557265717.042911) can0 0CFF6600#0000FF4F00FFFFFF
(1557265717.062924) can0 0CF00400#FFFFFF0000FFFF72
(1557265717.062925) can0 0CFF6600#0000FF4F00FFFFFF
(1557265717.078654) can0 10FF6527#FFFFFFCFFFFFFFFF
(1557265717.082854) can0 0CF00400#FFFFFF0000FFFF72
(1557265717.082855) can0 0CFF6600#0000FF4F00FFFFFF
(1557265717.088826) can0 18F00527#FFFFFFFF202DFFFF
(1557265717.097896) can0 18EA0027#DAFE00
(1557265717.102951) can0 0CF00400#FFFFFF0000FFFF72
(1557265717.102953) can0 0CFF6600#0000FF4F00FFFFFF
(1557265717.112474) can0 1CEC2700#1073001111DAFE00
(1557265717.113652) can0 18FEF100#FFFFFFDCFFFFF0FF
(1557265717.113653) can0 10FF6500#FFFFFFFF7FFFFFFD
(1557265717.114793) can0 18FEF200#0000000066230CFF
(1557265717.114794) can0 18FF6D00#31F131FFFFFFFFFF
(1557265717.118743) can0 1CEC0027#111101FFFFDAFE00
(1557265717.122441) can0 1CEB2700#010A2A4E31395443
(1557265717.122443) can0 0CF00400#FFFFFF0000FFFF72
(1557265717.123592) can0 0CFF6600#0000FF4F00FFFFFF
(1557265717.126447) can0 1CEB2700#02414141414A2A46
(1557265717.126448) can0 10FF6587#1C03FFFCFFFFFFFF
(1557265717.127567) can0 18FEF187#FFFFFF7FFFFF1F9F
(1557265717.130071) can0 1CFF6A27#7FFC00F7FFFFFFFF
(1557265717.130072) can0 1CEB2700#033030484D303031
(1557265717.132065) can0 10FF6586#F3FFFFF37FFFF0F3
(1557265717.132066) can0 18FEF186#FFFFFFF3CCFF3F00
(1557265717.134465) can0 1CEB2700#0438362A30303033
(1557265717.138446) can0 1CEB2700#0535303837363737
(1557265717.142439) can0 1CEB2700#06302A35364B5443
(1557265717.142440) can0 0CF00400#FFFFFF0000FFFF72
(1557265717.143588) can0 0CFF6600#0000FF4F00FFFFFF
(1557265717.146436) can0 1CEB2700#07414141394B3333
(1557265717.150463) can0 1CEB2700#0836353836392A20
(1557265717.154463) can0 1CEB2700#0920203430313431
(1557265717.158442) can0 1CEB2700#0A32352A4E410000
(1557265717.162345) can0 1CEB2700#0B000000002A564D
(1557265717.162347) can0 0CF00400#FFFFFF0000FFFF72
(1557265717.163546) can0 0CFF6600#0000FF4F00FFFFFF
(1557265717.166358) can0 1CEB2700#0C42384630413946
(1557265717.170350) can0 1CEB2700#0D312A5374616765
(1557265717.174344) can0 1CEB2700#0E203120496E2A34
(1557265717.178349) can0 1CEB2700#0F30313831323800
(1557265717.179874) can0 1CFF6A27#3FFC00F7FFFFFFFF
(1557265717.182333) can0 1CEB2700#102A464646464646
(1557265717.182334) can0 0CF00400#FFFFFF0000FFFF72
(1557265717.183523) can0 1CDD0027#6000000000000000
(1557265717.183524) can0 0CFF6600#0000FF4F00FFFFFF
(1557265717.186391) can0 1CEB2700#1146462AFFFFFFFF
(1557265717.188647) can0 1CEC0027#13730011FFDAFE00
(1557265717.189856) can0 18F00527#FFFFFFFF202DFFFF
(1557265717.200521) can0 1CDC2700#DD7AD56C98CBF4EE
(1557265717.202798) can0 0CF00400#FFFFFF0000FFFF72
(1557265717.202799) can0 0CFF6600#0000FF4F00FFFFFF
(1557265717.209848) can0 1CDD0027#62852A9367341163
(1557265717.213501) can0 18FEF100#FFFFFFDCFFFFF0FF
(1557265717.213502) can0 18FEF200#00000000662310FF
(1557265717.214700) can0 18FF6D00#31F131FFFFFFFFFF
(1557265717.216802) can0 18EEFF79#0000000000FF0210
(1557265717.220527) can0 18EEFF00#08CF600600000000
(1557265717.220528) can0 1CDC2700#0400000000000000
(1557265717.222935) can0 0CF00400#FFFFFF0000FFFF72
(1557265717.222936) can0 0CFF6600#0000FF4F00FFFFFF
(1557265717.226767) can0 18FEF187#FFFFFF7FFFFF2FAF
(1557265717.241464) can0 18FEF186#FFFFFFF3CCFF4F70
(1557265717.242792) can0 0CF00400#FFFFFF0000FFFF72
(1557265717.242793) can0 0CFF6600#0000FF4F00FFFFFF
(1557265717.262818) can0 0CF00400#FFFFFF0000FFFF72
(1557265717.262819) can0 0CFF6600#0000FF4F00FFFFFF
(1557265717.278571) can0 10FF6527#FFFFFFCFFFFFFFFF
(1557265717.278573) can0 1CFF6A27#3FFC00F3FFFFFFFF
(1557265717.282772) can0 0CF00400#FFFFFF0000FFFF72
(1557265717.282773) can0 0CFF6600#0000FF4F00FFFFFF
(1557265717.288795) can0 18F00527#FFFFFFFF202DFFFF
(1557265717.302923) can0 0CF00400#FFFFFF0000FFFF72
(1557265717.302924) can0 0CFF6600#0000FF4F00FFFFFF
(1557265717.313538) can0 18FEF100#FFFFFFDCFFFFF0FF
(1557265717.313539) can0 10FF6500#FFFFFFFF7FFFFFFD
(1557265717.314588) can0 18FEF200#00000000662310FF
(1557265717.314589) can0 18FF6D00#31F131FFFFFFFFFF
(1557265717.322871) can0 0CF00400#FFFFFF0000FFFF72
(1557265717.322872) can0 0CFF6600#0000FF4F00FFFFFF
(1557265717.326767) can0 10FF6587#1C03FFFCFFFFFFFF
(1557265717.326768) can0 18FEF187#FFFFFF7FFFFF3FBF
(1557265717.341532) can0 10FF6586#F3FFFFF37FFFF0F3
(1557265717.341533) can0 18FEF186#FFFFFFF3CCFF5F60
(1557265717.342900) can0 0CF00400#FFFFFF0000FFFF72
(1557265717.342901) can0 0CFF6600#0000FF4F00FFFFFF
(1557265717.362806) can0 0CF00400#FFFFFF0000FFFF72
(1557265717.362807) can0 0CFF6600#0000FF4F00FFFFFF
(1557265717.382860) can0 0CF00400#FFFFFF0000FFFF72
(1557265717.382861) can0 0CFF6600#0000FF4F00FFFFFF
(1557265717.388608) can0 18F00527#FFFFFFFF204EFFFF
(1557265717.402835) can0 0CF00400#FFFFFF0000FFFF72
(1557265717.402836) can0 0CFF6600#0000FF4F00FFFFFF
(1557265717.413553) can0 18FEF100#FFFFFFDCFFFFF0FF
(1557265717.413555) can0 18FEF200#00000000662310FF
(1557265717.414734) can0 18FF6D00#31F131FFFFFFFFFF
(1557265717.422910) can0 0CF00400#FFFFFF0000FFFF72
(1557265717.422911) can0 0CFF6600#0000FF4F00FFFFFF
(1557265717.426758) can0 10FF6487#FFFFFFF0F0FFFFFF
(1557265717.426759) can0 18FEF187#FFFFFF7FFFFF4FCF
(1557265717.442857) can0 0CF00400#FFFFFF0000FFFF72
(1557265717.442858) can0 0CFF6600#0000FF4F00FFFFFF
(1557265717.451518) can0 18FEF186#FFFFFFF3CCFF6F50
(1557265717.462874) can0 0CF00400#FFFFFF0000FFFF72
(1557265717.462875) can0 0CFF6600#0000FF4F00FFFFFF
(1557265717.478590) can0 10FF6527#FFFFFFCFFFFFFFFF
(1557265717.482709) can0 0CF00400#FFFFFF0000FFFF72
(1557265717.482710) can0 0CFF6600#0000FF4F00FFFFFF
(1557265717.488497) can0 18F00527#FFFFFFFF204EFFFF
(1557265717.502789) can0 0CF00400#FFFFFF0000FFFF72
(1557265717.502790) can0 0CFF6600#0000FF4F00FFFFFF
(1557265717.513388) can0 18FEF100#FFFFFFDCFFFFF0FF
(1557265717.513389) can0 10FF6500#FFFFFFFF7FFFFFFD
(1557265717.514464) can0 18FEF200#0000000066230BFF
(1557265717.514465) can0 18FF6D00#31F131FFFFFFFFFF
(1557265717.522690) can0 0CF00400#FFFFFF0000FFFF72
(1557265717.522691) can0 0CFF6600#0000FF4F00FFFFFF
(1557265717.526684) can0 10FF6587#1C03FFFCFFFFFFFF
(1557265717.526685) can0 18FEF187#FFFFFF7FFFFF5FDF
(1557265717.541405) can0 10FF6586#F3FFFFF37FFFF0F3
(1557265717.542805) can0 0CF00400#FFFFFF0000FFFF72
(1557265717.542805) can0 0CFF6600#0000FF4F00FFFFFF
(1557265717.551409) can0 18FEF186#FFFFFFF3CCFF7F40
(1557265717.562714) can0 0CF00400#FFFFFF0000FFFF72
(1557265717.562714) can0 0CFF6600#0000FF4F00FFFFFF
(1557265717.582759) can0 0CF00400#FFFFFF0000FFFF72
(1557265717.582760) can0 0CFF6600#0000FF4F00FFFFFF
(1557265717.588458) can0 18F00527#FFFFFFFF204EFFFF
(1557265717.602731) can0 0CF00400#FFFFFF0000FFFF72
(1557265717.602732) can0 0CFF6600#0000FF4F00FFFFFF
(1557265717.613430) can0 18FEF100#FFFFFFCCFFFFF0FF
(1557265717.613431) can0 18FEF200#0000000066230BFF
(1557265717.614633) can0 18FF6D00#31F131FFFFFFFFFF
(1557265717.622747) can0 0CF00400#FFFFFF0000FFFF72
(1557265717.622748) can0 0CFF6600#0000FF4F00FFFFFF
(1557265717.626602) can0 18FEF187#FFFFFF7FFFFF6FEF
(1557265717.642726) can0 0CF00400#FFFFFF0000FFFF72
(1557265717.642727) can0 0CFF6600#0000FF4F00FFFFFF
(1557265717.651395) can0 18FEF186#FFFFFFF3CCFF8FB0
(1557265717.662774) can0 0CF00400#FFFFFF0000FFFF72
(1557265717.662774) can0 0CFF6600#0000FF4F00FFFFFF
(1557265717.678545) can0 10FF6527#FFFFFFCFFFFFFFFF
(1557265717.682688) can0 0CF00400#FFFFFF0000FFFF72
(1557265717.682689) can0 0CFF6600#0000FF4F00FFFFFF
(1557265717.688443) can0 18F00527#FFFFFFFF204EFFFF
(1557265717.702768) can0 0CF00400#FFFFFF0000FFFF72
(1557265717.702769) can0 0CFF6600#0000FF4F00FFFFFF
(1557265717.713362) can0 18FEF100#FFFFFFCCFFFFF0FF
(1557265717.713379) can0 10FF6500#FFFFFFFF7FFFFFFD
(1557265717.714493) can0 18FEF200#0000000066230AFF
(1557265717.714494) can0 18FF6D00#31F131FFFFFFFFFF
(1557265717.722690) can0 0CF00400#FFFFFF0000FFFF72
(1557265717.722691) can0 0CFF6600#0000FF4F00FFFFFF
(1557265717.726640) can0 10FF6587#1C03FFFCFFFFFFFF
(1557265717.726641) can0 18FEF187#FFFFFF7FFFFF7FFF
(1557265717.728810) can0 18FECA86#00FF00000000FFFF
(1557265717.729989) can0 18EEFF0B#0013FF0025C29C70
(1557265717.740438) can0 18EEFF00#08CF600600000000
(1557265717.741662) can0 10FF6586#F3FFFFF37FFFF0F3
(1557265717.742835) can0 0CF00400#FFFFFF0000FFFF72
(1557265717.742836) can0 0CFF6600#0000FF4F00FFFFFF
(1557265717.751356) can0 18FEF186#FFFFFFF3CCFF9FA0
(1557265717.762710) can0 0CF00400#FFFFFF0000FFFF72
(1557265717.762710) can0 0CFF6600#0000FF4F00FFFFFF
(1557265717.765061) can0 18FF7286#FFFEFFFFFFFFFFFF
(1557265717.778558) can0 1CFF6A27#3FFC00F3FFFFFFFF
(1557265717.782711) can0 0CF00400#FFFFFF0000FFFF72
(1557265717.782712) can0 0CFF6600#0000FF4F00FFFFFF
(1557265717.788429) can0 18F00527#FFFFFFFF204EFFFF
(1557265717.788430) can0 18FECA27#00FF00000000FFFF
(1557265717.802707) can0 0CF00400#FFFFFF0000FFFF72
(1557265717.802707) can0 0CFF6600#0000FF4F00FFFFFF
(1557265717.813546) can0 18FEF100#FFFFFFCCFFFFF0FF
(1557265717.813547) can0 18FEF200#0000000066230AFF
(1557265717.814695) can0 18FF6D00#31F131FFFFFFFFFF
(1557265717.822870) can0 0CF00400#FFFFFF0000FFFF72
(1557265717.822871) can0 0CFF6600#0000FF4F00FFFFFF
(1557265717.826721) can0 18FEF187#FFFFFF7FFFFF8F0F
(1557265717.830094) can0 18F0010B#CFFFFFFFFFDC0BFF
(1557265717.830095) can0 18FEBF0B#000000007DFFFFFF
(1557265717.831186) can0 18FEF10B#3F0000FFFFFFFFFF
(1557265717.842735) can0 0CF00400#FFFFFF0000FFFF72
(1557265717.842736) can0 0CFF6600#0000FF4F00FFFFFF
(1557265717.851404) can0 18FEF186#FFFFFFF3CCFFAF90
(1557265717.862849) can0 0CF00400#FFFFFF0000FFFF72
(1557265717.862850) can0 0CFF6600#0000FF4F00FFFFFF
(1557265717.872273) can0 18FEEE00#79FFFFFFFFFFFFFF
(1557265717.872274) can0 0CFE4100#FF0FFFFFFFFFFFFF
(1557265717.873448) can0 18FECA00#00FF00000000FFFF
(1557265717.873449) can0 18FEFC00#FF2CFFFFFFFFFFFF
(1557265717.874544) can0 18FEF700#FFFFFFFFFA00FFFF
(1557265717.878711) can0 10FF6527#FFFFFFCFFFFFFFFF
(1557265717.882711) can0 0CF00400#FFFFFF0000FFFF72
(1557265717.882712) can0 0CFF6600#0000FF7600FFFFFF
(1557265717.888407) can0 18F00527#FFFFFFFF204EFFFF
(1557265717.888408) can0 18FF6E27#DFFFFFFFFFFFFFFF
(1557265717.889609) can0 18FF7127#F0FFFFFFFFFFFFFF
(1557265717.889610) can0 0CFE4127#FFFFFFFFFFFFFFFF
(1557265717.902762) can0 0CF00400#FFFFFF0000FFFF72
(1557265717.902763) can0 0CFF6600#0000FF7600FFFFFF
(1557265717.913379) can0 18FEF100#FFFFFFCCFFFFF0FF
(1557265717.913380) can0 10FF6500#FFFFFFFF7FFFFFFD
(1557265717.914479) can0 18FEF200#0000000066230AFF
(1557265717.914480) can0 18FF6D00#31F131FFFFFFFFFF
(1557265717.920564) can0 18FECA87#00FF00000000FFFF
(1557265717.922655) can0 0CF00400#FFFFFF0000FFFF72
(1557265717.922656) can0 0CFF6600#0000FF7600FFFFFF
(1557265717.926557) can0 10FF6487#FFFFFFF0F0FFFFFF
(1557265717.926558) can0 10FF6587#1C03FFFCFFFFFFFF
(1557265717.927702) can0 18FEF187#FFFFFF7FFFFF9F1F
(1557265717.929989) can0 18F0010B#CFFFFFFFFFDC0BFF
(1557265717.929990) can0 18FEBF0B#000000007DFFFFFF
(1557265717.931158) can0 18FEF10B#3F0000FFFFFFFFFF
(1557265717.942804) can0 0CF00400#FFFFFF0000FFFF72
(1557265717.942805) can0 0CFF6600#0000FF7600FFFFFF
(1557265717.951383) can0 10FF6586#F3FFFFF37FFFF0F3
(1557265717.951384) can0 18FEF186#FFFFFFF3CCFFBF80
(1557265717.953957) can0 18FF7287#FEFFFFFFFFFFFFFF
(1557265717.962707) can0 0CF00400#FFFFFF0000FFFF72
(1557265717.962708) can0 0CFF6600#0000FF7600FFFFFF
(1557265717.982837) can0 0CF00400#FFFFFF0000FFFF72
(1557265717.982838) can0 0CFF6600#0000FF7600FFFFFF
(1557265717.988653) can0 18F00527#FFFFFFFF204EFFFF
(1557265718.002809) can0 0CF00400#FFFFFF0000FFFF72
(1557265718.002810) can0 0CFF6600#0000FF7600FFFFFF
(1557265718.013535) can0 18FEF100#FFFFFFCCFFFFF0FF
(1557265718.013536) can0 18FEF200#0000000066230AFF
(1557265718.014683) can0 18FF6D00#31F131FFFFFFFFFF
(1557265718.022834) can0 0CF00400#FFFFFF0000FFFF72
(1557265718.022835) can0 0CFF6600#0000FF7600FFFFFF
(1557265718.026677) can0 18FEF187#FFFFFF7FFFFFAF2F
(1557265718.030024) can0 18F0010B#CFFFFFFFFFDC0BFF
(1557265718.030025) can0 18FEBF0B#000000007DFFFFFF
(1557265718.031183) can0 18EEFF17#0C03802A00130000
(1557265718.031184) can0 18FEF10B#3F0000FFFFFFFFFF
(1557265718.035125) can0 18EEFFA7#1003802A00130000
(1557265718.040437) can0 18EEFF00#08CF600600000000
(1557265718.042738) can0 0CF00400#FFFFFF0000FFFF72
(1557265718.042739) can0 0CFF6600#0000FF7600FFFFFF
(1557265718.050363) can0 18EAFF17#00EE00
(1557265718.051737) can0 18FEF186#FFFFFFF3CCFFCFF0
(1557265718.051738) can0 18EEFF87#0100821309870011
(1557265718.052932) can0 18EEFF86#0100811309870011
(1557265718.054970) can0 18EA00A7#DAFE00
(1557265718.054971) can0 18E8A700#03FFFFFFFFDAFE00
(1557265718.058365) can0 18EEFF27#00002038001E0000
(1557265718.060446) can0 18EEFF00#08CF600600000000
(1557265718.062879) can0 0CF00400#FFFFFF0000FFFF72
(1557265718.062880) can0 0CFF6600#0000FF7600FFFFFF
(1557265718.070017) can0 18EEFF0B#0013FF0025C29C70
(1557265718.070018) can0 18EA0017#DAFE00
(1557265718.078436) can0 10FF6527#FFFFFFCFFFFFFFFF
(1557265718.080511) can0 18EEFF00#08CF600600000000
(1557265718.082669) can0 0CF00400#FFFFFF0000FFFF72
(1557265718.082671) can0 0CFF6600#0000FF7600FFFFFF
(1557265718.088642) can0 18F00527#FFFFFFFF204EFFFF
(1557265718.090517) can0 18EEFF00#08CF600600000000
(1557265718.092427) can0 1CEC1700#1073001111DAFE00
(1557265718.102866) can0 0CF00400#FFFFFF0000FFFF72
(1557265718.102867) can0 0CFF6600#0000FF7600FFFFFF
(1557265718.110619) can0 1CEC0017#111101FFFFDAFE00
(1557265718.113442) can0 18FEF100#FFFFFFCCFFFFF0FF
(1557265718.113443) can0 10FF6500#FFFFFFFF7FFFFFFD
(1557265718.114537) can0 18FEF200#0000000066230AFF
(1557265718.114538) can0 18FF6D00#31F131FFFFFFFFFF
(1557265718.122336) can0 1CEB1700#010A2A4E31395443
(1557265718.122338) can0 0CF00400#FFFFFF0000FFFF72
(1557265718.123492) can0 0CFF6600#0000FF7600FFFFFF
(1557265718.126336) can0 1CEB1700#02414141414A2A46
(1557265718.126338) can0 10FF6587#1C03FFFCFFFFFFFF
(1557265718.127462) can0 18FEF187#FFFFFF7FFFFFBF3F
(1557265718.130010) can0 18F0010B#CFFFFFFFFFDC0BFF
(1557265718.130012) can0 18FEBF0B#000000007DFFFFFF
(1557265718.131137) can0 18FEF10B#3F0000FFFFFFFFFF
(1557265718.131138) can0 1CEB1700#033030484D303031
(1557265718.134262) can0 1CEB1700#0438362A30303033
(1557265718.138258) can0 1CEB1700#0535303837363737
(1557265718.142266) can0 1CEB1700#06302A35364B5443
(1557265718.142267) can0 0CF00400#FFFFFF0000FFFF72
(1557265718.143426) can0 0CFF6600#0000FF7600FFFFFF
(1557265718.146267) can0 1CEB1700#07414141394B3333
(1557265718.150341) can0 1CEB1700#0836353836392A20
(1557265718.151504) can0 10FF6586#F3FFFFF37FFFF0F3
(1557265718.151505) can0 18FEF186#FFFFFFF3CCFFDFE0
(1557265718.154256) can0 1CEB1700#0920203430313431
(1557265718.157000) can0 18EEFF1C#FFFF440E00000042
(1557265718.158259) can0 1CEB1700#0A32352A4E410000
(1557265718.160453) can0 18EEFF00#08CF600600000000
(1557265718.162336) can0 1CEB1700#0B000000002A564D
(1557265718.162337) can0 0CF00400#FFFFFF0000FFFF72
(1557265718.163452) can0 0CFF6600#0000FF7600FFFFFF
(1557265718.166265) can0 1CEB1700#0C42384630413946
(1557265718.170261) can0 1CEB1700#0D312A5374616765
(1557265718.174264) can0 1CEB1700#0E203120496E2A34
(1557265718.178263) can0 1CEB1700#0F30313831323800
(1557265718.182256) can0 1CEB1700#102A464646464646
(1557265718.182257) can0 0CF00400#FFFFFF0000FFFF72
(1557265718.183428) can0 0CFF6600#0000FF7600FFFFFF
(1557265718.186337) can0 1CEB1700#1146462AFFFFFFFF
(1557265718.188568) can0 18F00527#FFFFFFFF204EFFFF
(1557265718.190527) can0 1CEC0017#13770011FFDAFE00
(1557265718.202345) can0 1CEC1700#FFFEFFFFFFDAFE00
(1557265718.202346) can0 0CF00400#FFFFFF0000FFFF72
(1557265718.203441) can0 0CFF6600#0000FF7600FFFFFF
(1557265718.213422) can0 18FEF100#FFFFFFCCFFFFF0FF
(1557265718.213423) can0 18FEF200#0000000066230AFF
(1557265718.214605) can0 18FF6D00#31F131FFFFFFFFFF
(1557265718.222717) can0 0CF00400#FFFFFF0000FFFF72
(1557265718.222718) can0 0CFF6600#0000FF7600FFFFFF
(1557265718.226622) can0 18FEF187#FFFFFF7FFFFFCF4F
(1557265718.229896) can0 18F0010B#CFFFFFFFFFDC0BFF
(1557265718.229897) can0 18FEBF0B#000000007DFFFFFF
(1557265718.231063) can0 18FEF10B#3F0000FFFFFFFFFF
(1557265718.242695) can0 0CF00400#FFFFFF0000FFFF72
(1557265718.242696) can0 0CFF6600#0000FF7600FFFFFF
(1557265718.261327) can0 18FEF186#FFFFFFF3CCFFEFD0
(1557265718.262807) can0 0CF00400#FFFFFF0000FFFF72
(1557265718.262808) can0 0CFF6600#0000FF7600FFFFFF
(1557265718.278419) can0 10FF6527#FFFFFFCFFFFFFFFF
(1557265718.278420) can0 1CFF6A27#3FFC00F3FFFFFFFF
(1557265718.282740) can0 0CF00400#FFFFFF0000FFFF72
(1557265718.282742) can0 0CFF6600#0000FF7600FFFFFF
(1557265718.288592) can0 18F00527#FFFFFFFF204EFFFF
(1557265718.302762) can0 0CF00400#FFFFFF0000FFFF72
(1557265718.302763) can0 0CFF6600#0000FF7600FFFFFF
(1557265718.313419) can0 18FEF100#FFFFFFCCFFFFF0FF
(1557265718.313420) can0 10FF6500#FFFFFFFF7FFFFFFD
(1557265718.314512) can0 18FEF200#0000000066230AFF
(1557265718.314513) can0 18FF6D00#31F131FFFFFFFFFF
(1557265718.322737) can0 0CF00400#FFFFFF0000FFFF72
(1557265718.322741) can0 0CFF6600#0000FF7600FFFFFF
(1557265718.326691) can0 10FF6587#1C03FFFCFFFFFFFF
(1557265718.326693) can0 18FEF187#FFFFFF7FFFFFDF5F
(1557265718.329941) can0 18F0010B#CFFFFFFFFFDC0BFF
(1557265718.329942) can0 18FEBF0B#000000007DFFFFFF
(1557265718.331024) can0 18FEF10B#3F0000FFFFFFFFFF
(1557265718.342727) can0 0CF00400#FFFFFF0000FFFF72
(1557265718.342728) can0 0CFF6600#0000FF7600FFFFFF
(1557265718.361405) can0 10FF6586#F3FFFFF37FFFF0F3
(1557265718.361406) can0 18FEF186#FFFFFFF3CCFFFFC0
(1557265718.362768) can0 0CF00400#FFFFFF0000FFFF72
(1557265718.362769) can0 0CFF6600#0000FF7600FFFFFF
(1557265718.382810) can0 0CF00400#FFFFFF0000FFFF72
(1557265718.382811) can0 0CFF6600#0000FF7600FFFFFF
(1557265718.388572) can0 18F00527#FFFFFFFF204EFFFF
(1557265718.402747) can0 0CF00400#FFFFFF0000FFFF72
(1557265718.402748) can0 0CFF6600#0000FF7600FFFFFF
(1557265718.413477) can0 18FEF100#FFFFFFCCFFFFF0FF
(1557265718.413479) can0 18FEF200#0000000066230AFF
(1557265718.414626) can0 18FF6D00#31F131FFFFFFFFFF
(1557265718.422783) can0 0CF00400#FFFFFF0000FFFF72
(1557265718.422784) can0 0CFF6600#0000FF7600FFFFFF
(1557265718.426599) can0 10FF6487#FFFFFFF0F0FFFFFF
(1557265718.426600) can0 18FEF187#FFFFFF7FFFFFEF6F
(1557265718.429928) can0 18F0010B#CFFFFFFFFFDC0BFF
(1557265718.429929) can0 18FEBF0B#000000007DFFFFFF
(1557265718.431078) can0 18FEF10B#3F0000FFFFFFFFFF
(1557265718.442116) can0 09F8021C#FFFC00000000FFFF
(1557265718.442118) can0 0CF00400#FFFFFF0000FFFF72
(1557265718.443371) can0 09F8011C#0000000000000000
(1557265718.443372) can0 0CFF6600#0000FF7600FFFFFF
(1557265718.444435) can0 19FA031C#FFC2000000000000
(1557265718.444436) can0 0DF0101C#FF00000000000000
(1557265718.447169) can0 18FEE81C#FFFFFFFFFFFFFFFF
(1557265718.462311) can0 18FEF186#FFFFFFF3CCFF0F30
(1557265718.462312) can0 0CF00400#FFFFFF0000FFFF72
(1557265718.463499) can0 0CFF6600#0000FF7600FFFFFF
(1557265718.478310) can0 10FF6527#FFFFFFCFFFFFFFFF
(1557265718.482722) can0 0CF00400#FFFFFF0000FFFF72
(1557265718.482723) can0 0CFF6600#0000FF7600FFFFFF
(1557265718.488551) can0 18F00527#FFFFFFFF204EFFFF
(1557265718.502733) can0 0CF00400#FFFFFF0000FFFF72
(1557265718.502734) can0 0CFF6600#0000FF7600FFFFFF
(1557265718.513386) can0 18FEF100#FFFFFFCCFFFFF0FF
(1557265718.513387) can0 10FF6500#FFFFFFFF7FFFFFFD
(1557265718.514495) can0 18FEF200#0000000066230AFF
(1557265718.514496) can0 18FF6D00#31F131FFFFFFFFFF
(1557265718.522740) can0 0CF00400#FFFFFF0000FFFF72
(1557265718.522741) can0 0CFF6600#0000FF7600FFFFFF
(1557265718.527542) can0 10FF6587#1C03FFFCFFFFFFFF
(1557265718.527543) can0 18FEF187#FFFFFF7FFFFFFF7F
(1557265718.529890) can0 18F0010B#CFFFFFFFFFDC0BFF
(1557265718.529891) can0 18FEBF0B#000000007DFFFFFF
(1557265718.530982) can0 18FEF10B#3F0000FFFFFFFFFF
(1557265718.530983) can0 18FF7117#00FFFFFFFFFFFFFF
(1557265718.535354) can0 18FF71A7#00FFFFFFFFFFFFFF
(1557265718.542732) can0 0CF00400#FFFFFF0000FFFF72
(1557265718.542733) can0 0CFF6600#0000FF7600FFFFFF
(1557265718.550531) can0 18FEF517#FFFFFF6025FFFFFF
(1557265718.555056) can0 18FEC1A7#7815160000000000
(1557265718.562299) can0 10FF6586#F3FFFFF37FFFF0F3
(1557265718.562301) can0 0CF00400#FFFFFF0000FFFF72
(1557265718.563403) can0 18FEF186#FFFFFFF3CCFF1F20
(1557265718.563404) can0 0CFF6600#0000FF7600FFFFFF
(1557265718.570350) can0 18EA0017#6BFF00
(1557265718.574879) can0 18EA00A7#6BFF00
(1557265718.582696) can0 0CF00400#FFFFFF0000FFFF72
(1557265718.582697) can0 0CFF6600#0000FF7600FFFFFF
(1557265718.588451) can0 18F00527#FFFFFFFF204EFFFF
(1557265718.590369) can0 1CFF6B00#FFFFFF2C20FFF0F1
(1557265718.600397) can0 1CFF6B00#FFFFFF2C20FFF0F1
(1557265718.602670) can0 0CF00400#FFFFFF0000FFFF72
(1557265718.602671) can0 0CFF6600#0000FF7600FFFFFF
(1557265718.613374) can0 18FEF100#FFFFFFCCFFFFF0FF
(1557265718.613376) can0 18FEF200#0000000066230AFF
(1557265718.614629) can0 18FF6D00#31F131FFFFFFFFFF
(1557265718.622695) can0 0CF00400#FFFFFF0000FFFF72
(1557265718.622696) can0 0CFF6600#0000FF7600FFFFFF
(1557265718.627443) can0 18FEF187#FFFFFF7FFFFF0F8F
(1557265718.629794) can0 18F0010B#CFFFFFFFFFDC0BFF
(1557265718.629795) can0 18FEBF0B#000000007DFFFFFF
(1557265718.630977) can0 18FEF10B#3F0000FFFFFFFFFF
(1557265718.642641) can0 0CF00400#FFFFFF0000FFFF72
(1557265718.642642) can0 0CFF6600#0000FF7600FFFFFF
(1557265718.662687) can0 0CF00400#FFFFFF0000FFFF72
(1557265718.662688) can0 0CFF6600#0000FF7600FFFFFF
(1557265718.672361) can0 18FEF186#FFFFFFF3CCFF2F10
(1557265718.678366) can0 10FF6527#FFFFFFCFFFFFFFFF
(1557265718.682720) can0 0CF00400#FFFFFF0000FFFF72
(1557265718.682721) can0 0CFF6600#0000FF7600FFFFFF
(1557265718.688475) can0 18F00527#FFFFFFFF204EFFFF
(1557265718.702770) can0 0CF00400#FFFFFF0000FFFF72
(1557265718.702771) can0 0CFF6600#0000FF7600FFFFFF
(1557265718.713362) can0 18FEF100#FFFFFFCCFFFFF0FF
(1557265718.713363) can0 10FF6500#FFFFFFFF7FFFFFFD
(1557265718.714466) can0 18FEF200#0000000066230AFF
(1557265718.714467) can0 18FF6D00#31F131FFFFFFFFFF
(1557265718.722715) can0 0CF00400#FFFFFF0000FFFF72
(1557265718.722716) can0 0CFF6600#0000FF7600FFFFFF
(1557265718.727489) can0 10FF6587#1C03FFFCFFFFFFFF
(1557265718.727490) can0 18FEF187#FFFFFF7FFFFF1F9F
(1557265718.729712) can0 18FECA86#00FF00000000FFFF
(1557265718.729713) can0 18F0010B#CFFFFFFFFFDC0BFF
(1557265718.730780) can0 18FEBF0B#000000007DFFFFFF
(1557265718.730781) can0 18FECA0B#04FF00000000FFFF
(1557265718.731955) can0 18FEF10B#3F0000FFFFFFFFFF
(1557265718.742705) can0 0CF00400#FFFFFF0000FFFF72
(1557265718.742707) can0 0CFF6600#0000FF7600FFFFFF
(1557265718.762266) can0 10FF6586#F3FFFFF37FFFF0F3
(1557265718.762267) can0 0CF00400#FFFFFF0000FFFF72
(1557265718.763490) can0 0CFF6600#0000FF7600FFFFFF
(1557265718.765500) can0 18FF7286#FFFEFFFFFFFFFFFF
(1557265718.772269) can0 18FEF186#FFFFFFF3CCFF3F00
(1557265718.778273) can0 1CFF6A27#3FFC00F3FFFFFFFF
(1557265718.782684) can0 0CF00400#FFFFFF0000FFFF72
(1557265718.782685) can0 0CFF6600#0000FF7600FFFFFF
(1557265718.788427) can0 18F00527#FFFFFFFF204EFFFF
(1557265718.788428) can0 18FECA27#00FF00000000FFFF
(1557265718.802648) can0 0CF00400#FFFFFF0000FFFF72
(1557265718.802649) can0 0CFF6600#0000FF7600FFFFFF
(1557265718.813505) can0 18FEF100#FFFFFFCCFFFFF0FF
(1557265718.813506) can0 18FEF200#0000000066230AFF
(1557265718.814648) can0 18FF6D00#31F131FFFFFFFFFF
(1557265718.822745) can0 0CF00400#FFFFFF0000FFFF72
(1557265718.822747) can0 0CFF6600#0000FF7600FFFFFF
(1557265718.827468) can0 18FEF187#FFFFFF7FFFFF2FAF
(1557265718.829746) can0 18F0010B#CFFFFFFFFFDC0BFF
(1557265718.829747) can0 18FEBF0B#000000007DFFFFFF
(1557265718.830889) can0 18FEF10B#3F0000FFFFFFFFFF
(1557265718.842625) can0 0CF00400#FFFFFF0000FFFF72
(1557265718.842626) can0 0CFF6600#0000FF7600FFFFFF
(1557265718.862690) can0 0CF00400#FFFFFF0000FFFF72
(1557265718.862692) can0 0CFF6600#0000FF7600FFFFFF
(1557265718.872174) can0 18FEEE00#79FFFFFFFFFFFFFF
(1557265718.872176) can0 0CFE4100#FF0FFFFFFFFFFFFF
(1557265718.873346) can0 18FECA00#00FF00000000FFFF
(1557265718.873348) can0 18FEF186#FFFFFFF3CCFF4F70
(1557265718.874471) can0 18FEFC00#FF2CFFFFFFFFFFFF
(1557265718.874472) can0 18FEF700#FFFFFFFFFA00FFFF
(1557265718.878365) can0 10FF6527#FFFFFFCFFFFFFFFF
(1557265718.882608) can0 0CF00400#FFFFFF0000FFFF72
(1557265718.882609) can0 0CFF6600#0000FF7600FFFFFF
(1557265718.888255) can0 18F00527#FFFFFFFF204EFFFF
(1557265718.888256) can0 18FF6E27#DFFFFFFFFFFFFFFF
(1557265718.889430) can0 18FF7127#F0FFFFFFFFFFFFFF
(1557265718.889431) can0 0CFE4127#FFFFFFFFFFFFFFFF
(1557265718.902681) can0 0CF00400#FFFFFF0000FFFF72
(1557265718.902682) can0 0CFF6600#0000FF7600FFFFFF
(1557265718.913255) can0 18FEF100#FFFFFFCCFFFFF0FF
(1557265718.913257) can0 10FF6500#FFFFFFFF7FFFFFFD
(1557265718.914418) can0 18FEF200#0000000066230AFF
(1557265718.914419) can0 18FF6D00#31F131FFFFFFFFFF
(1557265718.921420) can0 18FECA87#00FF00000000FFFF
(1557265718.922603) can0 0CF00400#FFFFFF0000FFFF72
(1557265718.922604) can0 0CFF6600#0000FF7600FFFFFF
(1557265718.927331) can0 10FF6487#FFFFFFF0F0FFFFFF
(1557265718.927332) can0 10FF6587#1C03FFFCFFFFFFFF
(1557265718.928472) can0 18FEF187#FFFFFF7FFFFF3FBF
(1557265718.929703) can0 18F0010B#CFFFFFFFFFDC0BFF
(1557265718.929704) can0 18FEBF0B#000000007DFFFFFF
(1557265718.930888) can0 18FEF10B#3F0000FFFFFFFFFF
(1557265718.941562) can0 09F8021C#FFFC00000000FFFF
(1557265718.942551) can0 09F8011C#0000000000000000
(1557265718.942553) can0 0CF00400#FFFFFF0000FFFF72
(1557265718.943695) can0 19FA031C#FFC2000000000000
(1557265718.943696) can0 0CFF6600#0000FF7600FFFFFF
(1557265718.944864) can0 0DF0101C#FF00000000000000
(1557265718.946596) can0 18FEE81C#FFFFFFFFFFFFFFFF
(1557265718.954778) can0 18FF7287#FEFFFFFFFFFFFFFF
(1557265718.962238) can0 10FF6586#F3FFFFF37FFFF0F3
(1557265718.962239) can0 0CF00400#FFFFFF0000FFFF72
(1557265718.963428) can0 0CFF6600#0000FF7600FFFFFF
(1557265718.972320) can0 18FEF186#FFFFFFF3CCFF5F60
(1557265718.982758) can0 0CF00400#FFFFFF0000FFFF72
(1557265718.982759) can0 0CFF6600#0000FF7600FFFFFF
(1557265718.988325) can0 18F00527#FFFFFFFF204EFFFF
(1557265719.002622) can0 0CF00400#FFFFFF0000FFFF72
(1557265719.002623) can0 0CFF6600#0000FF7600FFFFFF
(1557265719.013403) can0 18FEF100#FFFFFFCCFFFFF0FF
(1557265719.013404) can0 18FEF200#0000000066230AFF
(1557265719.014548) can0 18FF6D00#31F131FFFFFFFFFF
(1557265719.022753) can0 0CF00400#FFFFFF0000FFFF72
(1557265719.022754) can0 0CFF6600#0000FF7600FFFFFF
(1557265719.027507) can0 18FEF187#FFFFFF7FFFFF4FCF
(1557265719.029694) can0 18F0010B#CFFFFFFFFFDC0BFF
(1557265719.029695) can0 18FEBF0B#000000007DFFFFFF
(1557265719.030841) can0 18FEF10B#3F0000FFFFFFFFFF
(1557265719.042607) can0 0CF00400#FFFFFF0000FFFF72
(1557265719.042608) can0 0CFF6600#0000FF7600FFFFFF
(1557265719.062580) can0 0CF00400#FFFFFF0000FFFF72
(1557265719.062582) can0 0CFF6600#0000FF7600FFFFFF
(1557265719.072308) can0 18FEF186#FFFFFFF3CCFF6F50
(1557265719.074861) can0 18EA00A7#DAFE00
(1557265719.078418) can0 10FF6527#FFFFFFCFFFFFFFFF
(1557265719.082693) can0 0CF00400#FFFFFF0000FFFF72
(1557265719.082694) can0 0CFF6600#0000FF7600FFFFFF
(1557265719.088306) can0 18F00527#FFFFFFFF204EFFFF
(1557265719.092307) can0 1CECA700#1073001111DAFE00
(1557265719.095042) can0 1CEC00A7#111101FFFFDAFE00
(1557265719.102310) can0 1CEBA700#010A2A4E31395443
(1557265719.102311) can0 0CF00400#FFFFFF0000FFFF72
(1557265719.103377) can0 0CFF6600#0000FF7600FFFFFF
(1557265719.106228) can0 1CEBA700#02414141414A2A46
(1557265719.110226) can0 1CEBA700#033030484D303031
(1557265719.113332) can0 18FEF100#FFFFFFCCFFFFF0FF
(1557265719.113333) can0 10FF6500#FFFFFFFF7FFFFFFD
(1557265719.114485) can0 18FEF200#0000000066230AFF
(1557265719.114486) can0 1CEBA700#0438362A30303033
(1557265719.115630) can0 18FF6D00#31F131FFFFFFFFFF
(1557265719.118225) can0 1CEBA700#0535303837363737
(1557265719.122232) can0 1CEBA700#06302A35364B5443
(1557265719.122233) can0 0CF00400#FFFFFF0000FFFF72
(1557265719.123302) can0 10FF6586#F3FFFFF77FFFF0F3
(1557265719.123303) can0 0CFF6600#0000FF7600FFFFFF
(1557265719.126226) can0 1CEBA700#07414141394B3333
(1557265719.127555) can0 10FF6587#1C03FFFCFFFFFFFF
(1557265719.127556) can0 18FEF187#FFFFFF7FFFFF5FDF
(1557265719.129650) can0 18F0010B#CFFFFFFFFFDC0BFF
(1557265719.129651) can0 18FEBF0B#000000007DFFFFFF
(1557265719.130819) can0 18FEF10B#3F0000FFFFFFFFFF
(1557265719.130820) can0 1CEBA700#0836353836392A20
(1557265719.134219) can0 1CEBA700#0920203430313431
(1557265719.138224) can0 1CEBA700#0A32352A4E410000
(1557265719.142223) can0 1CEBA700#0B000000002A564D
(1557265719.142224) can0 0CF00400#FFFFFF0000FFFF72
(1557265719.143351) can0 0CFF6600#0000FF7600FFFFFF
(1557265719.146222) can0 1CEBA700#0C42384630413946
(1557265719.150222) can0 1CEBA700#0D312A5374616765
(1557265719.154220) can0 1CEBA700#0E203120496E2A34
(1557265719.158221) can0 1CEBA700#0F30313831323800
(1557265719.162215) can0 1CEBA700#102A464646464646
(1557265719.162216) can0 0CF00400#FFFFFF0000FFFF72
(1557265719.163316) can0 0CFF6600#0000FF7600FFFFFF
(1557265719.166215) can0 1CEBA700#1146462AFFFFFFFF
(1557265719.172218) can0 10FF6586#F3FFFFF77FFFF0F3
(1557265719.172220) can0 18FEF186#FFFFFFF3CCFF7F40
(1557265719.174939) can0 1CEC00A7#13770011FFDAFE00
(1557265719.182217) can0 1CECA700#FFFEFFFFFFDAFE00
(1557265719.182218) can0 0CF00400#FFFFFF0000FFFF72
(1557265719.183339) can0 0CFF6600#0000FF7600FFFFFF
(1557265719.188341) can0 18F00527#FFFFFFFF204EFFFF
(1557265719.202601) can0 0CF00400#FFFFFF0000FFFF72
(1557265719.202602) can0 0CFF6600#0000FF7600FFFFFF
(1557265719.213311) can0 18FEF100#FFFFFFCCFFFFF0FF
(1557265719.213313) can0 18FEF200#0000000066230AFF
(1557265719.214485) can0 18FF6D00#31F131FFFFFFFFFF
(1557265719.222272) can0 10FF6586#F3FFFFF77FFFF0F3
(1557265719.222273) can0 0CF00400#FFFFFF0000FFFF72
(1557265719.223455) can0 0CFF6600#0000FF7600FFFFFF
(1557265719.227387) can0 18FEF187#FFFFFF7FFFFF6FEF
(1557265719.229649) can0 18F0010B#CFFFFFFFFFDC0BFF
(1557265719.229651) can0 18FEBF0B#000000007DFFFFFF
(1557265719.230783) can0 18FEF10B#3F0000FFFFFFFFFF
(1557265719.242584) can0 0CF00400#FFFFFFB806FFFF72
(1557265719.242585) can0 0CFF6600#D700FF7600FFFFFF
(1557265719.262654) can0 0CF00400#FFFFFF6A07FFFF72
(1557265719.262655) can0 0CFF6600#ED00FF7600FFFFFF
(1557265719.272313) can0 10FF6586#F3FFFFF37FFFF0F3
(1557265719.272314) can0 18FEF186#FFFFFFF3CCFF8FB0
(1557265719.278287) can0 10FF6527#FFFFFFCFFFFFFFFF
(1557265719.278288) can0 1CFF6A27#3FFC00F3FFFFFFFF
(1557265719.282685) can0 0CF00400#FFFFFFC007FFFF72
(1557265719.282686) can0 0CFF6600#F800FF7600FFFFFF
(1557265719.288281) can0 18F00527#FFFFFFFF204EFFFF
(1557265719.302580) can0 0CF00400#FFFFFF5207FFFF72
(1557265719.302581) can0 0CFF6600#EA00FF7600FFFFFF
(1557265719.313340) can0 18FEF100#FFFFFFCCFFFFF0FF
(1557265719.313341) can0 10FF6500#FFFFFFFF7FFFFFFD
(1557265719.314489) can0 18FEF200#0000000066230AFF
(1557265719.314490) can0 18FF6D00#31F131FFFFFFFFFF
(1557265719.322281) can0 10FF6586#F3FFFFF37FFFF0F3
(1557265719.322282) can0 0CF00400#FFFFFFE406FFFF72
(1557265719.323382) can0 0CFF6600#DC00FF7600FFFFFF
(1557265719.327370) can0 10FF6587#1C03FFFCFFFFFFFF
(1557265719.327371) can0 18FEF187#FFFFFF7FFFFF7FFF
(1557265719.329602) can0 18F0010B#CFFFFFFFFFDC0BFF
(1557265719.329603) can0 18FEBF0B#000000007DFFFFFF
(1557265719.330778) can0 18FEF10B#3F0000FFFFFFFFFF
(1557265719.342678) can0 0CF00400#FFFFFFFC08FFFF72
(1557265719.342680) can0 0CFF6600#1F01FF7600FFFFFF
(1557265719.362619) can0 0CF00400#FFFFFF8609FFFF72
(1557265719.362620) can0 0CFF6600#3001FF7600FFFFFF
(1557265719.372268) can0 10FF6586#F3FFFFF37FFFF0F3
(1557265719.372269) can0 18FEF186#FFFFFFF3CCFF9FA0
(1557265719.382757) can0 0CF00400#FFFFFFC008FFFF72
(1557265719.382758) can0 0CFF6600#1801FF7600FFFFFF
(1557265719.388268) can0 18F00527#FFFFFFFF204EFFFF
(1557265719.402698) can0 0CF00400#FFFFFF0C09FFFF72
(1557265719.402699) can0 0CFF6600#2101FF7600FFFFFF
(1557265719.413419) can0 18FEF100#FFFFFFCCFFFFF0FF
(1557265719.413420) can0 18FEF200#0000000066230AFF
(1557265719.414604) can0 18FF6D00#31F131FFFFFFFFFF
(1557265719.422268) can0 10FF6586#F3FFFFF37FFFF0F3
(1557265719.422270) can0 0CF00400#FFFFFF8E09FFFF72
(1557265719.423390) can0 0CFF6600#3101FF7600FFFFFF
(1557265719.427319) can0 10FF6487#FFFFFFF0F0FFFFFF
(1557265719.427321) can0 18FEF187#FFFFFF7FFFFF8F0F
(1557265719.429558) can0 18F0010B#CFFFFFFFFFDC0BFF
(1557265719.429559) can0 18FEBF0B#000000007DFFFFFF
(1557265719.430732) can0 18FEF10B#3F0000FFFFFFFFFF
(1557265719.440957) can0 09F8021C#FFFC00000000FFFF
(1557265719.441956) can0 09F8011C#0000000000000000
(1557265719.441957) can0 0CF00400#FFFFFF9C09FFFFBA
(1557265719.443286) can0 19FA031C#FFC2000000000000
(1557265719.443287) can0 0CFF6600#3301FF7600FFFFFF
(1557265719.444454) can0 0DF0101C#FF00000000000000
(1557265719.447035) can0 18FEE81C#FFFFFFFFFFFFFFFF
(1557265719.462730) can0 0CF00400#FFFFFF9C09FFFFBA
(1557265719.462732) can0 0CFF6600#3301FF7600FFFFFF
(1557265719.472180) can0 10FF6586#F3FFFFF37FFFF0F3
(1557265719.472182) can0 18FEF186#FFFFFFF3CCFFAF90
(1557265719.478308) can0 10FF6527#FFFFFFCFFFFFFFFF
(1557265719.482736) can0 0CF00400#FFFFFF9C09FFFFBA
(1557265719.482737) can0 0CFF6600#3301FF7600FFFFFF
(1557265719.488255) can0 18F00527#FFFFFFFF204EFFFF
(1557265719.502793) can0 0CF00400#FFFFFF9C09FFFFBA
(1557265719.502794) can0 0CFF6600#3301FF7600FFFFFF
(1557265719.513391) can0 18FEF100#FFFFFFCCFFFFF0FF
(1557265719.513392) can0 10FF6500#FFFFFFFF7FFFFFFD
(1557265719.514510) can0 18FEF200#0000000066230AFF
(1557265719.514511) can0 18FF6D00#31F131FFFFFFFFFF
(1557265719.522289) can0 10FF6586#F3FFFFF37FFFF0F3
(1557265719.522290) can0 0CF00400#FFFFFF9C09FFFFBA
(1557265719.523437) can0 0CFF6600#3301FF7600FFFFFF
(1557265719.527410) can0 10FF6587#1C03FFFCFFFFFFFF
(1557265719.527412) can0 18FEF187#FFFFFF7FFFFF9F1F
(1557265719.529636) can0 18F0010B#CFFFFFFFFFDC0BFF
(1557265719.529637) can0 18FEBF0B#000000007DFFFFFF
(1557265719.530703) can0 18FEF10B#3F0000FFFFFFFFFF
(1557265719.530704) can0 18FF7117#00FFFFFFFFFFFFFF
(1557265719.535183) can0 18FF71A7#00FFFFFFFFFFFFFF
(1557265719.542733) can0 0CF00400#FFFFFF9C09FFFFBA
(1557265719.542734) can0 0CFF6600#3301FF7600FFFFFF
(1557265719.550346) can0 18FEF517#FFFFFF6025FFFFFF
(1557265719.554845) can0 18FEC1A7#7815160078151600
(1557265719.562659) can0 0CF00400#FFFFFF9C09FFFFBA
(1557265719.562660) can0 0CFF6600#3301FF7600FFFFFF
(1557265719.572190) can0 10FF6586#F3FFFFF37FFFF0F3
(1557265719.572191) can0 18FEF186#FFFFFFF3CCFFBF80
(1557265719.582718) can0 0CF00400#FFFFFF9C09FFFFBA
(1557265719.582719) can0 0CFF6600#3301FF7600FFFFFF
(1557265719.588157) can0 18F00527#FFFFFFFF204EFFFF
(1557265719.602708) can0 0CF00400#FFFFFF9C09FFFFBA
(1557265719.602709) can0 0CFF6600#3301FF7600FFFFFF
(1557265719.613536) can0 18FEF100#FFFFFFCCFFFFF0FF
(1557265719.613537) can0 18FEF200#0000000066230AFF
(1557265719.614685) can0 18FF6D00#31F131FFFFFFFFFF
(1557265719.622236) can0 10FF6586#F3FFFFF37FFFF0F3
(1557265719.622238) can0 0CF00400#FFFFFF9C09FFFFBA
(1557265719.623349) can0 0CFF6600#3301FF7600FFFFFF
(1557265719.627400) can0 18FEF187#FFFFFF7FFFFFAF2F
(1557265719.629590) can0 18F0010B#CFFFFFFFFFDC0BFF
(1557265719.629591) can0 18FEBF0B#000000007DFFFFFF
(1557265719.630737) can0 18FEF10B#3F0000FFFFFFFFFF
(1557265719.642763) can0 0CF00400#FFFFFFCA09FFFF9C
(1557265719.642764) can0 0CFF6600#3901FF7600FFFFFF
(1557265719.662836) can0 0CF00400#FFFFFFCA09FFFF9C
(1557265719.662837) can0 0CFF6600#3901FF7600FFFFFF
(1557265719.672242) can0 10FF6586#F3FFFFF37FFFF0F3
(1557265719.672243) can0 18FEF186#FFFFFFF3CCFFCFF0
(1557265719.678367) can0 10FF6527#FFFFFFCFFFFFFFFF
(1557265719.682716) can0 0CF00400#FFFFFFCA09FFFF9C
(1557265719.682717) can0 0CFF6600#3901FF7600FFFFFF
(1557265719.688228) can0 18F00527#FFFFFFFF204EFFFF
(1557265719.702806) can0 0CF00400#FFFFFFCA09FFFF9C
(1557265719.702809) can0 0CFF6600#3901FF7600FFFFFF
(1557265719.713406) can0 18FEF100#FFFFFFCCFFFFF0FF
(1557265719.713407) can0 10FF6500#FFFFFFFF7FFFFFFD
(1557265719.714528) can0 18FEF200#0000000066230AFF
(1557265719.714529) can0 18FF6D00#31F131FFFFFFFFFF
(1557265719.722261) can0 10FF6586#F3FFFFF37FFFF0F3
(1557265719.722262) can0 0CF00400#FFFFFFCA09FFFF9C
(1557265719.723413) can0 0CFF6600#3901FF7600FFFFFF
(1557265719.727387) can0 10FF6587#1C03FFFCFFFFFFFF
(1557265719.727388) can0 18FEF187#FFFFFF7FFFFFBF3F
(1557265719.729507) can0 18F0010B#CFFFFFFFFFDC0BFF
(1557265719.729508) can0 18FEBF0B#000000007DFFFFFF
(1557265719.730648) can0 18FECA0B#04FF00000000FFFF
(1557265719.730649) can0 18FECA86#00FF00000000FFFF
(1557265719.731824) can0 18FEF10B#3F0000FFFFFFFFFF
(1557265719.742660) can0 0CF00400#FFFFFFCA09FFFF9C
(1557265719.742661) can0 0CFF6600#3901FF7600FFFFFF
(1557265719.763398) can0 0CF00400#FFFFFF620EFFFF9C
(1557265719.763400) can0 0CFF6600#CC01FF7600FFFFFF
(1557265719.770808) can0 18FF7286#FFFEFFFFFFFFFFFF
(1557265719.773221) can0 18FEF186#FFFFFFF3CCFFDFE0
(1557265719.778303) can0 1CFF6A27#3FFC00F3FFFFFFFF
(1557265719.782719) can0 0CF00400#FFFFFF620EFFFF92
(1557265719.782720) can0 0CFF6600#CC01FF7600FFFFFF
(1557265719.788138) can0 18F00527#FFFFFFFF204EFFFF
(1557265719.788139) can0 18FECA27#00FF00000000FFFF
(1557265719.802651) can0 0CF00400#FFFFFF620EFFFF92
(1557265719.802652) can0 0CFF6600#CC01FF7600FFFFFF
(1557265719.813524) can0 18FEF100#FFFFFFCCFFFFF0FF
(1557265719.813525) can0 18FEF200#0000000066230AFF
(1557265719.814674) can0 18FF6D00#31F131FFFFFFFFFF
(1557265719.823575) can0 0CF00400#FFFFFF081FFFFF92
(1557265719.823576) can0 0CFF6600#E103FF7600FFFFFF
(1557265719.827500) can0 18FEF187#FFFFFF7FFFFFCF4F
(1557265719.829465) can0 18F0010B#CFFFFFFFFFDC0BFF
(1557265719.829466) can0 18FEBF0B#000000007DFFFFFF
(1557265719.830638) can0 18FEF10B#3F0000FFFFFFFFFF
(1557265719.842986) can0 0CF00400#FFFFFF081FFFFF92
(1557265719.842988) can0 0CFF6600#E103FF7600FFFFFF
(1557265719.862813) can0 0CF00400#FFFFFF081FFFFF92
(1557265719.862814) can0 0CFF6600#E103FF7600FFFFFF
(1557265719.872341) can0 18FEEE00#79FFFFFFFFFFFFFF
(1557265719.872342) can0 0CFE4100#FF0FFFFFFFFFFFFF
(1557265719.873492) can0 18FECA00#00FF00000000FFFF
(1557265719.873493) can0 18FEF186#FFFFFFF3CCFFEFD0
(1557265719.874642) can0 18FEFC00#FF2CFFFFFFFFFFFF
(1557265719.874643) can0 18FEF700#FFFFFFFFF000FFFF
(1557265719.878961) can0 10FF6527#FFFFFFCFFFFFFFFF
(1557265719.882808) can0 0CF00400#FFFFFF3C24FFFF8C
(1557265719.882809) can0 0CFF6600#8704FF7600FFFFFF
(1557265719.888126) can0 18F00527#FFFFFFFF204EFFFF
(1557265719.888127) can0 18FF6E27#DFFFFFFFFFFFFFFF
(1557265719.889260) can0 18FF7127#F0FFFFFFFFFFFFFF
(1557265719.889261) can0 0CFE4127#FFFFFFFFFFFFFFFF
(1557265719.902805) can0 0CF00400#FFFFFF3C24FFFF8C
(1557265719.902806) can0 0CFF6600#8704FF7600FFFFFF
(1557265719.913547) can0 18FEF100#FFFFFFCCFFFFF0FF
(1557265719.913548) can0 10FF6500#FFFFFFFF7FFFFFFD
(1557265719.914695) can0 18FEF200#1D00000066230AFF
(1557265719.914696) can0 18FF6D00#31F131FFFFFFFFFF
(1557265719.922278) can0 18FECA87#00FF00000000FFFF
(1557265719.922279) can0 0CF00400#FFFFFF3C24FFFF8C
(1557265719.923426) can0 0CFF6600#8704FF7600FFFFFF
(1557265719.923427) can0 10FF6586#F3FFFFF37FFFF0F3
(1557265719.927348) can0 10FF6487#FFFFFFF0F0FFFFFF
(1557265719.927349) can0 10FF6587#1C03FFFCFFFFFFFF
(1557265719.928508) can0 18FEF187#FFFFFF7FFFFFDF5F
(1557265719.928509) can0 18F0010B#CFFFFFFFFFDC0BFF
(1557265719.930016) can0 18FEBF0B#000000007DFFFFFF
(1557265719.930017) can0 18FEF10B#3F0000FFFFFFFFFF
(1557265719.941403) can0 09F8021C#FFFC00000000FFFF
(1557265719.942415) can0 09F8011C#0000000000000000
(1557265719.942416) can0 0CF00400#FFFFFFD423FFFF8C
(1557265719.943566) can0 19FA031C#FFC2000000000000
(1557265719.943567) can0 0CFF6600#7A04FF7600FFFFFF
(1557265719.944721) can0 0DF0101C#FF00000000000000
(1557265719.946450) can0 18FEE81C#FFFFFFFFFFFFFFFF
(1557265719.959633) can0 18FF7287#FEFFFFFFFFFFFFFF
(1557265719.962753) can0 0CF00400#FFFFFFD423FFFF8C
(1557265719.962754) can0 0CFF6600#7A04FF7600FFFFFF
(1557265719.982770) can0 0CF00400#FFFFFFD423FFFF8C
(1557265719.982771) can0 18FEF186#FFFFFFF3CCFFFFC0
(1557265719.983978) can0 0CFF6600#7A04FF7600FFFFFF
(1557265719.988295) can0 18F00527#FFFFFFFF204EFFFF
(1557265720.003025) can0 0CF00400#FFFFFFFC21FFFF79
(1557265720.003026) can0 0CFF6600#3F04FF7600FFFFFF
(1557265720.013722) can0 18FEF100#FFFFFFCCFFFFF0FF
(1557265720.013723) can0 18FEF200#1D00000066230AFF
(1557265720.014867) can0 18FF6D00#31F131FFFFFFFFFF
(1557265720.022897) can0 0CF00400#FFFFFFFC21FFFF79
(1557265720.022898) can0 0CFF6600#3F04FF7600FFFFFF
(1557265720.027348) can0 18FEF187#FFFFFF7FFFFFEF6F
(1557265720.029457) can0 18F0010B#CFFFFFFFFFDC0BFF
(1557265720.029459) can0 18FEBF0B#000000007DFFFFFF
(1557265720.030594) can0 18FEF10B#3F0000FFFFFFFFFF
(1557265720.042732) can0 0CF00400#FFFFFFFC21FFFF79
(1557265720.042733) can0 0CFF6600#3F04FF7600FFFFFF
(1557265720.062884) can0 0CF00400#FFFFFF2E1FFFFF79
(1557265720.062885) can0 0CFF6600#E503FF7600FFFFFF
(1557265720.078040) can0 10FF6527#FFFFFFCFFFFFFFFF
(1557265720.083043) can0 0CF00400#FFFFFF2E1FFFFF79
(1557265720.083044) can0 18FEF186#FFFFFFF3CCFF0F30
(1557265720.084154) can0 0CFF6600#E503FF7600FFFFFF
(1557265720.088256) can0 18F00527#FFFFFFFF204EFFFF
(1557265720.103610) can0 0CF00400#FFFFFF2E1FFFFF7A
(1557265720.103612) can0 0CFF6600#E503FF7600FFFFFF
(1557265720.115459) can0 18FEF100#FFFFFFCCFFFFF0FF
(1557265720.115461) can0 10FF6500#FFFFFFFF7FFFFFFD
(1557265720.116574) can0 18FEF200#1D00000066230AFF
(1557265720.116575) can0 18FF6D00#31F131FFFFFFFFFF
(1557265720.123610) can0 0CF00400#FFFFFF861DFFFF7A
(1557265720.123612) can0 0CFF6600#B003FF7600FFFFFF
(1557265720.128361) can0 10FF6587#1C03FFFCFFFFFFFF
(1557265720.128363) can0 18FEF187#FFFFFF7FFFFFFF7F
(1557265720.129484) can0 18F0010B#CFFFFFFFFFDC0BFF
(1557265720.129485) can0 18FEBF0B#000000007DFFFFFF
(1557265720.130627) can0 18FEF10B#3F0000FFFFFFFFFF
(1557265720.133170) can0 10FF6586#F3FFFFF37FFFF0F3
(1557265720.143789) can0 0CF00400#FFFFFF861DFFFF7A
(1557265720.143790) can0 0CFF6600#B003FF7600FFFFFF
(1557265720.163520) can0 0CF00400#FFFFFF861DFFFF7A
(1557265720.163521) can0 0CFF6600#B003FF7600FFFFFF
(1557265720.183173) can0 18FEF186#FFFFFFF3CCFF1F20
(1557265720.183174) can0 0CF00400#FFFFFF001FFFFF79
(1557265720.184300) can0 0CFF6600#E003FF7600FFFFFF
(1557265720.188250) can0 18F00527#FFFFFFFF204EFFFF
(1557265720.203572) can0 0CF00400#FFFFFF001FFFFF79
(1557265720.203574) can0 0CFF6600#E003FF7600FFFFFF
(1557265720.214650) can0 18FEF100#FFFFFFCCFFFFF0FF
(1557265720.214651) can0 18FEF200#1D000000662309FF
(1557265720.215826) can0 18FF6D00#31F131FFFFFFFFFF
(1557265720.224565) can0 0CF00400#FFFFFFB221FFFF79
(1557265720.224566) can0 0CFF6600#3604FF7600FFFFFF
(1557265720.228445) can0 18FEF187#FFFFFF7FFFFF0F8F
(1557265720.229416) can0 18F0010B#CFFFFFFFFFDC0BFF
(1557265720.229417) can0 18FEBF0B#000000007DFFFFFF
(1557265720.230534) can0 18FEF10B#3F0000FFFFFFFFFF
(1557265720.243481) can0 0CF00400#FFFFFFB221FFFF79
(1557265720.243482) can0 0CFF6600#3604FF7600FFFFFF
(1557265720.263487) can0 0CF00400#FFFFFFB221FFFF79
(1557265720.263488) can0 0CFF6600#3604FF7600FFFFFF
(1557265720.278017) can0 10FF6527#FFFFFFCFFFFFFFFF
(1557265720.278018) can0 1CFF6A27#3FFC00F3FFFFFFFF
(1557265720.283156) can0 18FEF186#FFFFFFF3CCFF2F10
(1557265720.283157) can0 0CF00400#FFFFFF8C22FFFF79
(1557265720.284264) can0 0CFF6600#5104FF7600FFFFFF
(1557265720.288264) can0 18F00527#FFFFFFFF204EFFFF
(1557265720.303454) can0 0CF00400#FFFFFF8C22FFFF79
(1557265720.303455) can0 0CFF6600#5104FF7600FFFFFF
(1557265720.314337) can0 18FEF100#FFFFFFCCFFFFF0FF
(1557265720.314338) can0 10FF6500#FFFFFFFF7FFFFFFD
(1557265720.315460) can0 18FEF200#1D000000662307FF
(1557265720.315461) can0 18FF6D00#31F131FFFFFFFFFF
(1557265720.323471) can0 0CF00400#FFFFFF8C22FFFF79
(1557265720.323472) can0 0CFF6600#5104FF7600FFFFFF
(1557265720.328225) can0 10FF6587#1C03FFFCFFFFFFFF
(1557265720.328226) can0 18FEF187#FFFFFF7FFFFF1F9F
(1557265720.329366) can0 18F0010B#CFFFFFFFFFDC0BFF
(1557265720.329367) can0 18FEBF0B#000000007DFFFFFF
(1557265720.330556) can0 18FEF10B#3F0000FFFFFFFFFF
(1557265720.333104) can0 10FF6586#F3FFFFF37FFFF0F3
(1557265720.343631) can0 0CF00400#FFFFFF9421FFFF78
(1557265720.343632) can0 0CFF6600#3204FF7600FFFFFF
(1557265720.363705) can0 0CF00400#FFFFFF9421FFFF78
(1557265720.363706) can0 0CFF6600#3204FF7600FFFFFF
(1557265720.383020) can0 18FEF186#FFFFFFF3CCFF3F00
(1557265720.383021) can0 0CF00400#FFFFFF9421FFFF78
(1557265720.384142) can0 0CFF6600#3204FF7600FFFFFF
(1557265720.388105) can0 18F00527#FFFFFFFF204EFFFF
(1557265720.403493) can0 0CF00400#FFFFFF4E1FFFFF79
(1557265720.403494) can0 0CFF6600#E903FF7600FFFFFF
(1557265720.414569) can0 18FEF100#FFFFFFCCFFFFF0FF
(1557265720.414570) can0 18FEF200#1D000000662307FF
(1557265720.415738) can0 18FF6D00#31F131FFFFFFFFFF
(1557265720.424365) can0 0CF00400#FFFFFF4E1FFFFF79
(1557265720.424366) can0 0CFF6600#E903FF7600FFFFFF
(1557265720.428297) can0 10FF6487#FFFFFFF0F0FFFFFF
(1557265720.428297) can0 18FEF187#FFFFFF7FFFFF2FAF
(1557265720.429415) can0 18F0010B#CFFFFFFFFFDC0BFF
(1557265720.429416) can0 18FEBF0B#000000007DFFFFFF
(1557265720.430580) can0 18FEF10B#3F0000FFFFFFFFFF
(1557265720.440931) can0 09F8021C#FFFC00000000FFFF
(1557265720.441926) can0 09F8011C#0000000000000000
(1557265720.442924) can0 19FA031C#FFC2000000000000
(1557265720.442925) can0 0CF00400#FFFFFF4E1FFFFF79
(1557265720.444184) can0 0DF0101C#FF00000000000000
(1557265720.444185) can0 0CFF6600#E903FF7600FFFFFF
(1557265720.445966) can0 18FEE81C#FFFFFFFFFFFFFFFF
(1557265720.464528) can0 0CF00400#FFFFFF541DFFFF79
(1557265720.464529) can0 0CFF6600#AA03FF7600FFFFFF
(1557265720.477974) can0 10FF6527#FFFFFFCFFFFFFFFF
(1557265720.483130) can0 18FEF186#FFFFFFF3CCFF4F70
(1557265720.483132) can0 0CF00400#FFFFFF541DFFFF7A
(1557265720.484470) can0 0CFF6600#AA03FF7600FFFFFF
(1557265720.488125) can0 18F00527#FFFFFFFF204EFFFF
(1557265720.503510) can0 0CF00400#FFFFFF541DFFFF7A
(1557265720.503511) can0 0CFF6600#AA03FF7600FFFFFF
(1557265720.514353) can0 18FEF100#FFFFFFCCFFFFF0FF
(1557265720.514354) can0 10FF6500#FFFFFFFF7FFFFFFD
(1557265720.515497) can0 18FEF200#1D000000662308FF
(1557265720.515499) can0 18FF6D00#31F131FFFFFFFFFF
(1557265720.524428) can0 0CF00400#FFFFFF741DFFFF7A
(1557265720.524429) can0 0CFF6600#AE03FF7600FFFFFF
(1557265720.528322) can0 10FF6587#1C03FFFCFFFFFFFF
(1557265720.528323) can0 18FEF187#FFFFFF7FFFFF3FBF
(1557265720.529465) can0 18F0010B#CFFFFFFFFFDC0BFF
(1557265720.529466) can0 18FEBF0B#000000007DFFFFFF
(1557265720.530639) can0 18FEF10B#3F0000FFFFFFFFFF
(1557265720.530640) can0 18FF7117#00FFFFFFFFFFFFFF
(1557265720.533345) can0 10FF6586#F3FFFFF37FFFF0F3
(1557265720.535163) can0 18FF71A7#00FFFFFFFFFFFFFF
(1557265720.543629) can0 0CF00400#FFFFFF741DFFFF7A
(1557265720.543630) can0 0CFF6600#AE03FF7600FFFFFF
(1557265720.550228) can0 18FEF517#FFFFFF6025FFFFFF
(1557265720.554752) can0 18FEC1A7#7815160078151600
(1557265720.563475) can0 0CF00400#FFFFFF741DFFFF7A
(1557265720.563476) can0 0CFF6600#AE03FF7600FFFFFF
(1557265720.583121) can0 18FEF186#FFFFFFF3CCFF5F60
(1557265720.584565) can0 0CF00400#FFFFFF2C1FFFFF7A
(1557265720.584568) can0 0CFF6600#E503FF7600FFFFFF
(1557265720.588090) can0 18F00527#FFFFFFFF204EFFFF
(1557265720.603513) can0 0CF00400#FFFFFF2C1FFFFF77
(1557265720.603514) can0 0CFF6600#E503FF7600FFFFFF
(1557265720.614433) can0 18FEF100#FFFFFFCCFFFFF0FF
(1557265720.614434) can0 18FEF200#1D000000662309FF
(1557265720.615610) can0 18FF6D00#31F131FFFFFFFFFF
(1557265720.623534) can0 0CF00400#FFFFFF2C1FFFFF77
(1557265720.623535) can0 0CFF6600#E503FF7600FFFFFF
(1557265720.628217) can0 18FEF187#FFFFFF7FFFFF4FCF
(1557265720.629318) can0 18F0010B#CFFFFFFFFFDC0BFF
(1557265720.629319) can0 18FEBF0B#000000007DFFFFFF
(1557265720.630471) can0 18FEF10B#3F0000FFFFFFFFFF
(1557265720.643516) can0 0CF00400#FFFFFF7620FFFF77
(1557265720.643517) can0 0CFF6600#0E04FF7600FFFFFF
(1557265720.664388) can0 0CF00400#FFFFFF7620FFFF77
(1557265720.664389) can0 0CFF6600#0E04FF7600FFFFFF
(1557265720.677913) can0 10FF6527#FFFFFFCFFFFFFFFF
(1557265720.683106) can0 18FEF186#FFFFFFF3CCFF6F50
(1557265720.683107) can0 0CF00400#FFFFFF7620FFFF77
(1557265720.684183) can0 0CFF6600#0E04FF7600FFFFFF
(1557265720.688161) can0 18F00527#FFFFFFFF204EFFFF
(1557265720.703587) can0 0CF00400#FFFFFF4020FFFF78
(1557265720.703588) can0 0CFF6600#0804FF7600FFFFFF
(1557265720.714658) can0 18FEF100#FFFFFFCCFFFFF0FF
(1557265720.714659) can0 10FF6500#FFFFFFFF7FFFFFFD
(1557265720.715806) can0 18FEF200#1D000000662308FF
(1557265720.715807) can0 18FF6D00#31F131FFFFFFFFFF
(1557265720.723530) can0 0CF00400#FFFFFF4020FFFF78
(1557265720.723532) can0 0CFF6600#0804FF7600FFFFFF
(1557265720.728191) can0 10FF6587#1C03FFFCFFFFFFFF
(1557265720.728192) can0 18FEF187#FFFFFF7FFFFF5FDF
(1557265720.729367) can0 18F0010B#CFFFFFFFFFDC0BFF
(1557265720.729368) can0 18FEBF0B#000000007DFFFFFF
(1557265720.730489) can0 18FECA0B#04FF00000000FFFF
(1557265720.730490) can0 18FEF10B#3F0000FFFFFFFFFF
(1557265720.732315) can0 18FECA86#00FF00000000FFFF
(1557265720.734014) can0 10FF6586#F3FFFFF37FFFF0F3
(1557265720.743497) can0 0CF00400#FFFFFF4020FFFF78
(1557265720.743498) can0 0CFF6600#0804FF7600FFFFFF
(1557265720.763519) can0 0CF00400#FFFFFF9C1FFFFF78
(1557265720.763521) can0 0CFF6600#F303FF7600FFFFFF
(1557265720.771624) can0 18FF7286#FFFEFFFFFFFFFFFF
(1557265720.777952) can0 1CFF6A27#3FFC00F3FFFFFFFF
(1557265720.783992) can0 0CF00400#FFFFFF9C1FFFFF78
(1557265720.783993) can0 18FEF186#FFFFFFF3CCFF7F40
(1557265720.785117) can0 0CFF6600#F303FF7600FFFFFF
(1557265720.788056) can0 18F00527#FFFFFFFF204EFFFF
(1557265720.789258) can0 18FECA27#00FF00000000FFFF
(1557265720.803480) can0 0CF00400#FFFFFF9C1FFFFF78
(1557265720.803481) can0 0CFF6600#F303FF7600FFFFFF
(1557265720.814411) can0 18FEF100#FFFFFFCCFFFFF0FF
(1557265720.814412) can0 18FEF200#1D000000662308FF
(1557265720.815646) can0 18FF6D00#31F131FFFFFFFFFF
(1557265720.823602) can0 0CF00400#FFFFFFCC1FFFFF78
(1557265720.823603) can0 0CFF6600#F903FF7600FFFFFF
(1557265720.828142) can0 18FEF187#FFFFFF7FFFFF6FEF
(1557265720.829207) can0 18F0010B#CFFFFFFFFFDC0BFF
(1557265720.829208) can0 18FEBF0B#000000007DFFFFFF
(1557265720.830358) can0 18FEF10B#3F0000FFFFFFFFFF
(1557265720.843406) can0 0CF00400#FFFFFFCC1FFFFF78
(1557265720.843407) can0 0CFF6600#F903FF7600FFFFFF
(1557265720.863423) can0 0CF00400#FFFFFFCC1FFFFF78
(1557265720.863424) can0 0CFF6600#F903FF7600FFFFFF
(1557265720.873636) can0 18FEEE00#79FFFFFFFFFFFFFF
(1557265720.873637) can0 0CFE4100#FF0FFFFFFFFFFFFF
(1557265720.874789) can0 18FECA00#00FF00000000FFFF
(1557265720.874790) can0 18FEFC00#FF2CFFFFFFFFFFFF
(1557265720.875965) can0 18FEF700#FFFFFFFFF400FFFF
(1557265720.877998) can0 10FF6527#FFFFFFCFFFFFFFFF
(1557265720.883407) can0 0CF00400#FFFFFF5E20FFFF77
(1557265720.883408) can0 18FEF186#FFFFFFF3CCFF8FB0
(1557265720.884543) can0 0CFF6600#0B04FF7600FFFFFF
(1557265720.887849) can0 18F00527#FFFFFFFF204EFFFF
(1557265720.887850) can0 18FF6E27#DFFFFFFFFFFFFFFF
(1557265720.889070) can0 18FF7127#F0FFFFFFFFFFFFFF
(1557265720.889071) can0 0CFE4127#FFFFFFFFFFFFFFFF
(1557265720.903747) can0 0CF00400#FFFFFF5E20FFFF77
(1557265720.903748) can0 0CFF6600#0B04FF7600FFFFFF
(1557265720.914268) can0 18FEF100#FFFFFFCCFFFFF0FF
(1557265720.914269) can0 10FF6500#FFFFFFFF7FFFFFFD
(1557265720.915416) can0 18FEF200#21000000662308FF
(1557265720.915417) can0 18FF6D00#31F131FFFFFFFFFF
(1557265720.923122) can0 18FECA87#00FF00000000FFFF
(1557265720.923123) can0 0CF00400#FFFFFF5E20FFFF77
(1557265720.924270) can0 0CFF6600#0B04FF7600FFFFFF
(1557265720.928120) can0 10FF6487#FFFFFFF0F0FFFFFF
(1557265720.928122) can0 10FF6587#1C03FFFCFFFFFFFF
(1557265720.929262) can0 18F0010B#CFFFFFFFFFDC0BFF
(1557265720.929263) can0 18FEBF0B#000000007DFFFFFF
(1557265720.930420) can0 18FEF10B#3F0000FFFFFFFFFF
(1557265720.930420) can0 18FEF187#FFFFFF7FFFFF7FFF
(1557265720.933985) can0 10FF6586#F3FFFFF37FFFF0F3
(1557265720.940246) can0 09F8021C#FFFC00000000FFFF
(1557265720.941268) can0 09F8011C#0000000000000000
(1557265720.942293) can0 19FA031C#FFC2000000000000
(1557265720.942294) can0 0DF0101C#FF00000000000000
(1557265720.943836) can0 0CF00400#FFFFFF3420FFFF78
(1557265720.943837) can0 0CFF6600#0604FF7600FFFFFF
(1557265720.945330) can0 18FEE81C#FFFFFFFFFFFFFFFF
(1557265720.960549) can0 18FF7287#FEFFFFFFFFFFFFFF
(1557265720.963584) can0 0CF00400#FFFFFF3420FFFF78
(1557265720.963585) can0 0CFF6600#0604FF7600FFFFFF
(1557265720.983459) can0 0CF00400#FFFFFF3420FFFF78
(1557265720.983460) can0 18FEF186#FFFFFFF3CCFF9FA0
(1557265720.984672) can0 0CFF6600#0604FF7600FFFFFF
(1557265720.987948) can0 18F00527#FFFFFFFF204EFFFF
(1557265721.003514) can0 0CF00400#FFFFFFFC1EFFFF78
(1557265721.003516) can0 0CFF6600#DF03FF7600FFFFFF
(1557265721.014467) can0 18FEF100#FFFFFFCCFFFFF0FF
(1557265721.014468) can0 18FEF200#21000000662308FF
(1557265721.015637) can0 18FF6D00#31F131FFFFFFFFFF
(1557265721.023740) can0 0CF00400#FFFFFFFC1EFFFF78
(1557265721.023741) can0 0CFF6600#DF03FF7600FFFFFF
(1557265721.028218) can0 18FEF187#FFFFFF7FFFFF8F0F
(1557265721.029214) can0 18F0010B#CFFFFFFFFFDC0BFF
(1557265721.029215) can0 18FEBF0B#000000007DFFFFFF
(1557265721.030305) can0 18FEF10B#3F0000FFFFFFFFFF
(1557265721.043503) can0 0CF00400#FFFFFFFC1EFFFF78
(1557265721.043504) can0 0CFF6600#DF03FF7600FFFFFF
(1557265721.063473) can0 0CF00400#FFFFFF201EFFFF78
(1557265721.063474) can0 0CFF6600#C403FF7600FFFFFF
(1557265721.078054) can0 10FF6527#FFFFFFCFFFFFFFFF
(1557265721.083458) can0 0CF00400#FFFFFF201EFFFF78
(1557265721.083459) can0 0CFF6600#C403FF7600FFFFFF
(1557265721.084579) can0 18FEF186#FFFFFFF3CCFFAF90
(1557265721.087926) can0 18F00527#FFFFFFFF204EFFFF
(1557265721.103536) can0 0CF00400#FFFFFF201EFFFF78
(1557265721.103537) can0 0CFF6600#C403FF7600FFFFFF
(1557265721.114397) can0 18FEF100#FFFFFFCCFFFFF0FF
(1557265721.114398) can0 10FF6500#FFFFFFFF7FFFFFFD
(1557265721.115522) can0 18FEF200#21000000662308FF
(1557265721.115523) can0 18FF6D00#31F131FFFFFFFFFF
(1557265721.123548) can0 0CF00400#FFFFFF8C1EFFFF78
(1557265721.123549) can0 0CFF6600#D103FF7600FFFFFF
(1557265721.128196) can0 10FF6587#1C03FFFCFFFFFFFF
(1557265721.128198) can0 18FEF187#FFFFFF7FFFFF9F1F
(1557265721.129322) can0 18F0010B#CFFFFFFFFFDC0BFF
(1557265721.129323) can0 18FEBF0B#000000007DFFFFFF
(1557265721.130481) can0 18FEF10B#3F0000FFFFFFFFFF
(1557265721.134033) can0 10FF6586#F3FFFFF37FFFF0F3
(1557265721.143919) can0 0CF00400#FFFFFF8C1EFFFF78
(1557265721.143921) can0 0CFF6600#D103FF7600FFFFFF
(1557265721.163394) can0 0CF00400#FFFFFF8C1EFFFF78
(1557265721.163395) can0 0CFF6600#D103FF7600FFFFFF
(1557265721.183561) can0 0CF00400#FFFFFF041FFFFF77
(1557265721.183565) can0 18FEF186#FFFFFFF3CCFFBF80
(1557265721.184660) can0 0CFF6600#E003FF7600FFFFFF
(1557265721.187908) can0 18F00527#FFFFFFFF204EFFFF
(1557265721.203417) can0 0CF00400#FFFFFF041FFFFF77
(1557265721.203418) can0 0CFF6600#E003FF7600FFFFFF
(1557265721.214457) can0 18FEF100#FFFFFFCCFFFFF0FF
(1557265721.214458) can0 18FEF200#21000000662308FF
(1557265721.215611) can0 18FF6D00#31F131FFFFFFFFFF
(1557265721.223535) can0 0CF00400#FFFFFF041FFFFF77
(1557265721.223536) can0 0CFF6600#E003FF7600FFFFFF
(1557265721.228159) can0 18FEF187#FFFFFF7FFFFFAF2F
(1557265721.229158) can0 18F0010B#CFFFFFFFFFDC0BFF
(1557265721.229159) can0 18FEBF0B#000000007DFFFFFF
(1557265721.230308) can0 18FEF10B#3F0000FFFFFFFFFF
(1557265721.243426) can0 0CF00400#FFFFFFAA1EFFFF78
(1557265721.243428) can0 0CFF6600#D503FF7600FFFFFF
(1557265721.263766) can0 0CF00400#FFFFFFAA1EFFFF78
(1557265721.263767) can0 0CFF6600#D503FF7600FFFFFF
(1557265721.278028) can0 10FF6527#FFFFFFCFFFFFFFFF
(1557265721.278029) can0 1CFF6A27#3FFC00F3FFFFFFFF
(1557265721.283427) can0 0CF00400#FFFFFFAA1EFFFF78
(1557265721.283428) can0 0CFF6600#D503FF7600FFFFFF
(1557265721.284556) can0 18FEF186#FFFFFFF3CCFFCFF0
(1557265721.287876) can0 18F00527#FFFFFFFF204EFFFF
(1557265721.304530) can0 0CF00400#FFFFFFF81DFFFF78
(1557265721.304531) can0 0CFF6600#BF03FF7600FFFFFF
(1557265721.314337) can0 18FEF100#FFFFFFCCFFFFF0FF
(1557265721.314338) can0 10FF6500#FFFFFFFF7FFFFFFD
(1557265721.315474) can0 18FEF200#21000000662308FF
(1557265721.315475) can0 18FF6D00#31F131FFFFFFFFFF
(1557265721.323879) can0 0CF00400#FFFFFFF81DFFFF78
(1557265721.323881) can0 0CFF6600#BF03FF7600FFFFFF
(1557265721.328122) can0 10FF6587#1C03FFFCFFFFFFFF
(1557265721.328123) can0 18FEF187#FFFFFF7FFFFFBF3F
(1557265721.329247) can0 18F0010B#CFFFFFFFFFDC0BFF
(1557265721.329248) can0 18FEBF0B#000000007DFFFFFF
(1557265721.330333) can0 18FEF10B#3F0000FFFFFFFFFF
(1557265721.333934) can0 10FF6586#F3FFFFF37FFFF0F3
(1557265721.343381) can0 0CF00400#FFFFFFF81DFFFF78
(1557265721.343382) can0 0CFF6600#BF03FF7600FFFFFF
(1557265721.363298) can0 0CF00400#FFFFFFF81DFFFF78
(1557265721.363299) can0 0CFF6600#BF03FF7600FFFFFF
(1557265721.383465) can0 0CF00400#FFFFFF081DFFFF78
(1557265721.383466) can0 18FEF186#FFFFFFF3CCFFDFE0
(1557265721.384612) can0 0CFF6600#A103FF7600FFFFFF
(1557265721.387764) can0 18F00527#FFFFFFFF204EFFFF
(1557265721.403513) can0 0CF00400#FFFFFF081DFFFF78
(1557265721.403514) can0 0CFF6600#A103FF7600FFFFFF
(1557265721.414310) can0 18FEF100#FFFFFFCCFFFFF0FF
(1557265721.414310) can0 18FEF200#21000000662308FF
(1557265721.415483) can0 18FF6D00#31F131FFFFFFFFFF
(1557265721.423428) can0 0CF00400#FFFFFF081DFFFF78
(1557265721.423429) can0 0CFF6600#A103FF7600FFFFFF
(1557265721.427984) can0 18FEF187#FFFFFF7FFFFFCF4F
(1557265721.427985) can0 18F0010B#CFFFFFFFFFDC0BFF
(1557265721.429582) can0 18FEBF0B#000000007DFFFFFF
(1557265721.429583) can0 18FEF10B#3F0000FFFFFFFFFF
(1557265721.438033) can0 10FF6487#FFFFFFF0F0FFFFFF
(1557265721.439630) can0 09F8021C#FFFC00000000FFFF
(1557265721.440653) can0 09F8011C#0000000000000000
(1557265721.441682) can0 19FA031C#FFC2000000000000
(1557265721.441683) can0 0DF0101C#FF00000000000000
(1557265721.443455) can0 0CF00400#FFFFFF121CFFFF79
(1557265721.443456) can0 0CFF6600#8203FF7600FFFFFF
(1557265721.444755) can0 18FEE81C#FFFFFFFFFFFFFFFF
(1557265721.463377) can0 0CF00400#FFFFFF121CFFFF79
(1557265721.463378) can0 0CFF6600#8203FF7600FFFFFF
(1557265721.477897) can0 10FF6527#FFFFFFCFFFFFFFFF
(1557265721.483301) can0 0CF00400#FFFFFF121CFFFF79
(1557265721.483302) can0 0CFF6600#8203FF7600FFFFFF
(1557265721.484423) can0 18FEF186#FFFFFFF3CCFFEFD0
(1557265721.487752) can0 18F00527#FFFFFFFF204EFFFF
(1557265721.503323) can0 0CF00400#FFFFFF121CFFFF79
(1557265721.503326) can0 0CFF6600#8203FF7600FFFFFF
(1557265721.514277) can0 18FEF100#FFFFFFCCFFFFF0FF
(1557265721.514278) can0 10FF6500#FFFFFFFF7FFFFFFD
(1557265721.515422) can0 18FEF200#21000000662308FF
(1557265721.515422) can0 18FF6D00#31F131FFFFFFFFFF
(1557265721.523272) can0 0CF00400#FFFFFF801BFFFF79
(1557265721.523273) can0 0CFF6600#7003FF7600FFFFFF
(1557265721.527996) can0 10FF6587#1C03FFFCFFFFFFFF
(1557265721.527997) can0 18FEF187#FFFFFF7FFFFFDF5F
(1557265721.529144) can0 18F0010B#CFFFFFFFFFDC0BFF
(1557265721.529145) can0 18FEBF0B#000000007DFFFFFF
(1557265721.530293) can0 18FEF10B#3F0000FFFFFFFFFF
(1557265721.530294) can0 18FF7117#00FFFFFFFFFFFFFF
(1557265721.533890) can0 10FF6586#F3FFFFF37FFFF0F3
(1557265721.533891) can0 18FF71A7#00FFFFFFFFFFFFFF
(1557265721.543737) can0 0CF00400#FFFFFF801BFFFF79
(1557265721.543738) can0 0CFF6600#7003FF7600FFFFFF
(1557265721.549968) can0 18FEF517#FFFFFF6025FFFFFF
(1557265721.554477) can0 18FEC1A7#7815160078151600
(1557265721.563377) can0 0CF00400#FFFFFF801BFFFF79
(1557265721.563378) can0 0CFF6600#7003FF7600FFFFFF
(1557265721.583418) can0 0CF00400#FFFFFFCA1AFFFF79
(1557265721.583419) can0 18FEF186#FFFFFFF3CCFFFFC0
(1557265721.584588) can0 0CFF6600#5903FF7600FFFFFF
(1557265721.587731) can0 18F00527#FFFFFFFF204EFFFF
(1557265721.603442) can0 0CF00400#FFFFFFCA1AFFFF79
(1557265721.603443) can0 0CFF6600#5903FF7600FFFFFF
(1557265721.614679) can0 18FEF100#FFFFFFCCFFFFF0FF
(1557265721.614680) can0 18FEF200#21000000662307FF
(1557265721.615858) can0 18FF6D00#31F131FFFFFFFFFF
(1557265721.623482) can0 0CF00400#FFFFFFCA1AFFFF79
(1557265721.623483) can0 0CFF6600#5903FF7600FFFFFF
(1557265721.628107) can0 18FEF187#FFFFFF7FFFFFEF6F
(1557265721.628108) can0 18F0010B#CFFFFFFFFFDC0BFF
(1557265721.629622) can0 18FEBF0B#000000007DFFFFFF
(1557265721.629623) can0 18FEF10B#3F0000FFFFFFFFFF
(1557265721.643410) can0 0CF00400#FFFFFFCA1AFFFF79
(1557265721.643411) can0 0CFF6600#5903FF7600FFFFFF
(1557265721.663461) can0 0CF00400#FFFFFFEE19FFFF7A
(1557265721.663462) can0 0CFF6600#3D03FF7600FFFFFF
(1557265721.677801) can0 10FF6527#FFFFFFCFFFFFFFFF
(1557265721.683709) can0 0CF00400#FFFFFFEE19FFFF7A
(1557265721.683710) can0 18FEF186#FFFFFFF3CCFF0F30
(1557265721.684782) can0 0CFF6600#3D03FF7600FFFFFF
(1557265721.687733) can0 18F00527#FFFFFFFF204EFFFF
(1557265721.703313) can0 0CF00400#FFFFFFEE19FFFF7A
(1557265721.703314) can0 0CFF6600#3D03FF7600FFFFFF
(1557265721.714246) can0 18FEF100#FFFFFFCCFFFFF0FF
(1557265721.714247) can0 10FF6500#FFFFFFFF7FFFFFFD
(1557265721.715416) can0 18FEF200#21000000662307FF
(1557265721.715417) can0 18FF6D00#31F131FFFFFFFFFF
(1557265721.723247) can0 0CF00400#FFFFFFEE19FFFF7A
(1557265721.723248) can0 0CFF6600#3D03FF7600FFFFFF
(1557265721.728035) can0 10FF6587#1C03FFFCFFFFFFFF
(1557265721.728036) can0 18FEF187#FFFFFF7FFFFFFF7F
(1557265721.729187) can0 18F0010B#CFFFFFFFFFDC0BFF
(1557265721.729188) can0 18FEBF0B#000000007DFFFFFF
(1557265721.730344) can0 18FECA0B#04FF00000000FFFF
(1557265721.730345) can0 18FEF10B#3F0000FFFFFFFFFF
(1557265721.732489) can0 18FECA86#00FF00000000FFFF
(1557265721.734044) can0 10FF6586#F3FFFFF37FFFF0F3
(1557265721.743457) can0 0CF00400#FFFFFF0619FFFF7A
(1557265721.743458) can0 0CFF6600#2003FF7600FFFFFF
(1557265721.763389) can0 0CF00400#FFFFFF0619FFFF7A
(1557265721.763391) can0 0CFF6600#2003FF7600FFFFFF
(1557265721.776497) can0 18FF7286#FFFEFFFFFFFFFFFF
(1557265721.777722) can0 1CFF6A27#3FFC00F3FFFFFFFF
(1557265721.783418) can0 0CF00400#FFFFFF0619FFFF7A
(1557265721.783419) can0 18FEF186#FFFFFFF3CCFF1F20
(1557265721.784543) can0 0CFF6600#2003FF7600FFFFFF
(1557265721.787711) can0 18F00527#FFFFFFFF204EFFFF
(1557265721.787712) can0 18FECA27#00FF00000000FFFF
(1557265721.804174) can0 0CF00400#FFFFFF6618FFFF7A
(1557265721.804177) can0 0CFF6600#0C03FF7600FFFFFF
(1557265721.814357) can0 18FEF100#FFFFFFCCFFFFF0FF
(1557265721.814358) can0 18FEF200#21000000662307FF
(1557265721.815501) can0 18FF6D00#31F131FFFFFFFFFF
(1557265721.823356) can0 0CF00400#FFFFFF6618FFFF7B
(1557265721.823357) can0 0CFF6600#0C03FF7600FFFFFF
(1557265721.828055) can0 18FEF187#FFFFFF7FFFFF0F8F
(1557265721.828056) can0 18F0010B#CFFFFFFFFFDC0BFF
(1557265721.829493) can0 18FEBF0B#000000007DFFFFFF
(1557265721.829494) can0 18FEF10B#3F0000FFFFFFFFFF
(1557265721.843527) can0 0CF00400#FFFFFF6618FFFF7B
(1557265721.843528) can0 0CFF6600#0C03FF7600FFFFFF
(1557265721.863433) can0 0CF00400#FFFFFF6618FFFF7B
(1557265721.863434) can0 0CFF6600#0C03FF7600FFFFFF
(1557265721.872653) can0 18FEEE00#79FFFFFFFFFFFFFF
(1557265721.872654) can0 0CFE4100#FF0FFFFFFFFFFFFF
(1557265721.873792) can0 18FECA00#00FF00000000FFFF
(1557265721.873793) can0 18FEFC00#FF2CFFFFFFFFFFFF
(1557265721.874983) can0 18FEF700#FFFFFFFF1A01FFFF
(1557265721.877755) can0 10FF6527#FFFFFFCFFFFFFFFF
(1557265721.877757) can0 18FEF427#10FFFFFFFFFFFFFF
(1557265721.883866) can0 18FEF186#FFFFFFF3CCFF2F10
(1557265721.883868) can0 0CF00400#FFFFFF3418FFFF7B
(1557265721.885022) can0 0CFF6600#0603FF7600FFFFFF
(1557265721.887672) can0 18F00527#FFFFFFFF204EFFFF
(1557265721.887673) can0 18FF6E27#DFFFFFFFFFFFFFFF
(1557265721.888866) can0 18FF7127#F0FFFFFFFFFFFFFF
(1557265721.888867) can0 0CFE4127#FFFFFFFFFFFFFFFF
(1557265721.890646) can0 0CFF0686#F0FF00F2FFFFFF6F
(1557265721.897757) can0 0CFF0627#F0FF00F2FFFFFF1F
(1557265721.903644) can0 0CF00400#FFFFFF3418FFFF7B
(1557265721.903645) can0 0CFF6600#0603FF7600FFFFFF
(1557265721.914172) can0 18FEF100#FFFFFFCCFFFFF0FF
(1557265721.914173) can0 10FF6500#FFFFFFFF7FFFFFFD
(1557265721.915284) can0 18FEF200#1A000000662307FF
(1557265721.915285) can0 18FF6D00#31F131FFFFFFFFFF
(1557265721.923169) can0 0CF00400#FFFFFF3418FFFF7B
(1557265721.923170) can0 0CFF6600#0603FF7600FFFFFF
(1557265721.924338) can0 18FECA87#00FF00000000FFFF
(1557265721.928043) can0 10FF6587#1C03FFFCFFFFFFFF
(1557265721.928045) can0 18FEF187#FFFFFF7FFFFF1F9F
(1557265721.929165) can0 18F0010B#CFFFFFFFFFDC0BFF
(1557265721.929166) can0 18FEBF0B#000000007DFFFFFF
(1557265721.930339) can0 18FEF10B#3F0000FFFFFFFFFF
(1557265721.937981) can0 10FF6487#FFFFFFF0F0FFFFFF
(1557265721.939083) can0 09F8021C#FFFC00000000FFFF
(1557265721.940106) can0 09F8011C#0000000000000000
(1557265721.941132) can0 19FA031C#FFC2000000000000
(1557265721.941134) can0 0DF0101C#FF00000000000000
(1557265721.943461) can0 0CF00400#FFFFFF3418FFFF7B
(1557265721.943462) can0 0CFF6600#0603FF7600FFFFFF
(1557265721.944639) can0 10FF6586#F3FFFFF37FFFF0F3
(1557265721.944640) can0 18FEE81C#FFFFFFFFFFFFFFFF
(1557265721.963238) can0 0CF00400#FFFFFF8A18FFFF7B
(1557265721.963239) can0 0CFF6600#1103FF7600FFFFFF
(1557265721.965850) can0 18FF7287#FEFFFFFFFFFFFFFF
(1557265721.983385) can0 0CF00400#FFFFFF8A18FFFF7B
(1557265721.983386) can0 18FEF186#FFFFFFF3CCFF3F00
(1557265721.984593) can0 0CFF6600#1103FF7600FFFFFF
(1557265721.987936) can0 18F00527#FFFFFFFF204EFFFF
(1557265722.003319) can0 0CF00400#FFFFFF8A18FFFF7B
(1557265722.003320) can0 0CFF6600#1103FF7600FFFFFF
(1557265722.014415) can0 18FEF100#FFFFFFCCFFFFF0FF
(1557265722.014416) can0 18FEF200#1A000000662307FF
(1557265722.015543) can0 18FF6D00#31F131FFFFFFFFFF
(1557265722.023413) can0 0CF00400#FFFFFF8A18FFFF7B
(1557265722.023414) can0 0CFF6600#1103FF7600FFFFFF
(1557265722.028085) can0 18FEF187#FFFFFF7FFFFF2FAF
(1557265722.028086) can0 18F0010B#CFFFFFFFFFDC0BFF
(1557265722.029521) can0 18FEBF0B#000000007DFFFFFF
(1557265722.029522) can0 18FEF10B#3F0000FFFFFFFFFF
(1557265722.043302) can0 0CF00400#FFFFFFC418FFFF7B
(1557265722.043303) can0 0CFF6600#1803FF7600FFFFFF
(1557265722.063275) can0 0CF00400#FFFFFFC418FFFF7B
(1557265722.063276) can0 0CFF6600#1803FF7600FFFFFF
(1557265722.077655) can0 10FF6527#FFFFFFCFFFFFFFFF
(1557265722.083305) can0 0CF00400#FFFFFFC418FFFF7B
(1557265722.083307) can0 0CFF6600#1803FF7600FFFFFF
(1557265722.084429) can0 18FEF186#FFFFFFF3CCFF4F70
(1557265722.087923) can0 18F00527#FFFFFFFF204EFFFF
(1557265722.103398) can0 0CF00400#FFFFFFC418FFFF7B
(1557265722.103399) can0 0CFF6600#1803FF7600FFFFFF
(1557265722.115177) can0 18FEF100#FFFFFFCCFFFFF0FF
(1557265722.115178) can0 10FF6500#FFFFFFFF7FFFFFFD
(1557265722.116308) can0 18FEF200#1A000000662307FF
(1557265722.116309) can0 18FF6D00#31F131FFFFFFFFFF
(1557265722.123317) can0 0CF00400#FFFFFF2818FFFF7B
(1557265722.123319) can0 0CFF6600#0503FF7600FFFFFF
(1557265722.128911) can0 18F0010B#CFFFFFFFFFDC0BFF
(1557265722.128912) can0 10FF6587#1C03FFFCFFFFFFFF
(1557265722.130046) can0 18FEBF0B#000000007DFFFFFF
(1557265722.130047) can0 18FEF10B#3F0000FFFFFFFFFF
(1557265722.131193) can0 18FEF187#FFFFFF7FFFFF3FBF
(1557265722.143740) can0 0CF00400#FFFFFF2818FFFF7B
(1557265722.143741) can0 0CFF6600#0503FF7600FFFFFF
(1557265722.153791) can0 10FF6586#F3FFFFF37FFFF0F3
(1557265722.163189) can0 0CF00400#FFFFFF2818FFFF7B
(1557265722.163190) can0 0CFF6600#0503FF7600FFFFFF
(1557265722.183435) can0 0CF00400#FFFFFF2818FFFF7B
(1557265722.183436) can0 18FEF186#FFFFFFF3CCFF5F60
(1557265722.184566) can0 0CFF6600#0503FF7600FFFFFF
(1557265722.187911) can0 18F00527#FFFFFFFF204EFFFF
(1557265722.203300) can0 0CF00400#FFFFFF6617FFFF7C
(1557265722.203301) can0 0CFF6600#EC02FF7600FFFFFF
(1557265722.214637) can0 18FEF100#FFFFFFCCFFFFF0FF
(1557265722.214638) can0 18FEF200#1A000000662307FF
(1557265722.215884) can0 18FF6D00#31F131FFFFFFFFFF
(1557265722.223304) can0 0CF00400#FFFFFF6617FFFF7C
(1557265722.223305) can0 0CFF6600#EC02FF7600FFFFFF
(1557265722.228904) can0 18F0010B#CFFFFFFFFFDC0BFF
(1557265722.228906) can0 18FEBF0B#000000007DFFFFFF
(1557265722.230033) can0 18FEF10B#3F0000FFFFFFFFFF
(1557265722.230034) can0 18FEF187#FFFFFF7FFFFF4FCF
(1557265722.243202) can0 0CF00400#FFFFFF6617FFFF7C
(1557265722.243203) can0 0CFF6600#EC02FF7600FFFFFF
(1557265722.263407) can0 0CF00400#FFFFFF6617FFFF7C
(1557265722.263409) can0 0CFF6600#EC02FF7600FFFFFF
(1557265722.277604) can0 10FF6527#FFFFFFCFFFFFFFFF
(1557265722.277606) can0 1CFF6A27#3FFC00F3FFFFFFFF
(1557265722.283295) can0 0CF00400#FFFFFFA017FFFF7C
(1557265722.283296) can0 18FEF186#FFFFFFF3CCFF6F50
(1557265722.284395) can0 0CFF6600#F402FF7600FFFFFF
(1557265722.287899) can0 18F00527#FFFFFFFF204EFFFF
(1557265722.303849) can0 0CF00400#FFFFFFA017FFFF7C
(1557265722.303850) can0 0CFF6600#F402FF7600FFFFFF
(1557265722.314202) can0 18FEF100#FFFFFFCCFFFFF0FF
(1557265722.314203) can0 10FF6500#FFFFFFFF7FFFFFFD
(1557265722.315351) can0 18FEF200#1A000000662307FF
(1557265722.315352) can0 18FF6D00#31F131FFFFFFFFFF
(1557265722.323375) can0 0CF00400#FFFFFFA017FFFF7C
(1557265722.323376) can0 0CFF6600#F402FF7600FFFFFF
(1557265722.328885) can0 18F0010B#CFFFFFFFFFDC0BFF
(1557265722.328886) can0 10FF6587#1C03FFFCFFFFFFFF
(1557265722.330016) can0 18FEBF0B#000000007DFFFFFF
(1557265722.330017) can0 18FEF10B#3F0000FFFFFFFFFF
(1557265722.331166) can0 18FEF187#FFFFFF7FFFFF5FDF
(1557265722.343346) can0 0CF00400#FFFFFFA017FFFF7C
(1557265722.343347) can0 0CFF6600#F402FF7600FFFFFF
(1557265722.353754) can0 10FF6586#F3FFFFF37FFFF0F3
(1557265722.363320) can0 0CF00400#FFFFFF5E18FFFF7C
(1557265722.363321) can0 0CFF6600#0B03FF7600FFFFFF
(1557265722.383334) can0 0CF00400#FFFFFF5E18FFFF7C
(1557265722.383336) can0 18FEF186#FFFFFFF3CCFF7F40
(1557265722.384459) can0 0CFF6600#0B03FF7600FFFFFF
(1557265722.387877) can0 18F00527#FFFFFFFF204EFFFF
(1557265722.403332) can0 0CF00400#FFFFFF5E18FFFF7C
(1557265722.403336) can0 0CFF6600#0B03FF7600FFFFFF
(1557265722.414262) can0 18FEF100#FFFFFFCCFFFFF0FF
(1557265722.414264) can0 18FEF200#1A000000662307FF
(1557265722.415436) can0 18FF6D00#31F131FFFFFFFFFF
(1557265722.423335) can0 0CF00400#FFFFFF5E18FFFF7C
(1557265722.423336) can0 0CFF6600#0B03FF7600FFFFFF
(1557265722.428878) can0 18F0010B#CFFFFFFFFFDC0BFF
(1557265722.428879) can0 18FEBF0B#000000007DFFFFFF
(1557265722.429984) can0 18FEF10B#3F0000FFFFFFFFFF
(1557265722.429985) can0 18FEF187#FFFFFF7FFFFF6FEF
(1557265722.438980) can0 10FF6487#FFFFFFF0F0FFFFFF
(1557265722.438981) can0 09F8021C#FFFC00000000FFFF
(1557265722.440619) can0 09F8011C#0000000000000000
(1557265722.441632) can0 19FA031C#FFC2000000000000
(1557265722.442570) can0 0DF0101C#FF00000000000000
(1557265722.442571) can0 0CF00400#FFFFFF4618FFFF7C
(1557265722.443874) can0 0CFF6600#0803FF7600FFFFFF
(1557265722.443875) can0 18FEE81C#FFFFFFFFFFFFFFFF
(1557265722.445626) can0 19FA041C#003FFFFF05060000
(1557265722.446641) can0 19FA041C#0100000000FFFFFF
(1557265722.447660) can0 19FA041C#02FFFF0C00000000
(1557265722.447661) can0 19FA041C#030000FFFFFFFFFF
(1557265722.449702) can0 19FA041C#0411000000000000
(1557265722.450710) can0 19FA041C#05FFFFFFFFFF1300
(1557265722.451792) can0 19FA041C#060000000000FFFF
(1557265722.451793) can0 19FA041C#07FFFFFF18000000
(1557265722.453762) can0 19FA041C#08000000FFFFFFFF
(1557265722.453763) can0 19FA041C#09FFFFFFFFFFFFFF
(1557265722.463223) can0 0CF00400#FFFFFF4618FFFF7C
(1557265722.463225) can0 0CFF6600#0803FF7600FFFFFF
(1557265722.477491) can0 10FF6527#FFFFFFCFFFFFFFFF
(1557265722.483218) can0 0CF00400#FFFFFF4618FFFF7C
(1557265722.483219) can0 0CFF6600#0803FF7600FFFFFF
(1557265722.485545) can0 18FEF186#FFFFFFF3CCFF8FB0
(1557265722.487779) can0 18F00527#FFFFFFFF204EFFFF
(1557265722.503299) can0 0CF00400#FFFFFF4618FFFF7C
(1557265722.503300) can0 0CFF6600#0803FF7600FFFFFF
(1557265722.514167) can0 18FEF100#FFFFFFCCFFFFF0FF
(1557265722.514168) can0 10FF6500#FFFFFFFF7FFFFFFD
(1557265722.515316) can0 18FEF200#1A000000662307FF
(1557265722.515317) can0 18FF6D00#31F131FFFFFFFFFF
(1557265722.523219) can0 0CF00400#FFFFFF8C17FFFF7C
(1557265722.523220) can0 0CFF6600#F102FF7600FFFFFF
(1557265722.528866) can0 18F0010B#CFFFFFFFFFDC0BFF
(1557265722.528867) can0 10FF6587#1C03FFFCFFFFFFFF
(1557265722.529889) can0 18FEBF0B#000000007DFFFFFF
(1557265722.529891) can0 18FEF10B#3F0000FFFFFFFFFF
(1557265722.531043) can0 18FEF187#FFFFFF7FFFFF7FFF
(1557265722.531044) can0 18FF7117#00FFFFFFFFFFFFFF
(1557265722.534540) can0 18D017A7#F001010001FFFFFF
(1557265722.543238) can0 0CF00400#FFFFFF8C17FFFF7C
(1557265722.543239) can0 0CFF6600#F102FF7600FFFFFF
(1557265722.549781) can0 18FEF517#FFFFFF6025FFFFFF
(1557265722.554232) can0 18FF71A7#00FFFFFFFFFFFFFF
(1557265722.554233) can0 10FF6586#F3FFFFF37FFFF0F3
(1557265722.563138) can0 0CF00400#FFFFFF8C17FFFF7C
(1557265722.563139) can0 0CFF6600#F102FF7600FFFFFF
(1557265722.574239) can0 18FEFCA7#FF2AFFFFFFFFFFFF
(1557265722.584311) can0 0CF00400#FFFFFFFC17FFFF7C
(1557265722.584312) can0 0CFF6600#FF02FF7600FFFFFF
(1557265722.587652) can0 18F00527#FFFFFFFF204EFFFF
(1557265722.594207) can0 18FEC1A7#7815160078151600
(1557265722.594208) can0 18FEF186#FFFFFFF3CCFF9FA0
(1557265722.603206) can0 0CF00400#FFFFFFFC17FFFF7C
(1557265722.603207) can0 0CFF6600#FF02FF7600FFFFFF
(1557265722.614511) can0 18FEF100#FFFFFFCCFFFFF0FF
(1557265722.614512) can0 18FEF200#1A000000662307FF
(1557265722.615746) can0 18FF6D00#31F131FFFFFFFFFF
(1557265722.623205) can0 0CF00400#FFFFFFFC17FFFF7C
(1557265722.623206) can0 0CFF6600#FF02FF7600FFFFFF
(1557265722.628747) can0 18F0010B#CFFFFFFFFFDC0BFF
(1557265722.628748) can0 18FEBF0B#000000007DFFFFFF
(1557265722.629852) can0 18FEF10B#3F0000FFFFFFFFFF
(1557265722.629854) can0 18FEF187#FFFFFF7FFFFF8F0F
(1557265722.643175) can0 0CF00400#FFFFFFFC17FFFF7C
(1557265722.643176) can0 0CFF6600#FF02FF7600FFFFFF
(1557265722.663300) can0 0CF00400#FFFFFF8219FFFF7B
(1557265722.663301) can0 0CFF6600#3003FF7600FFFFFF
(1557265722.677449) can0 10FF6527#FFFFFFCFFFFFFFFF
(1557265722.683122) can0 0CF00400#FFFFFF8219FFFF7B
(1557265722.683123) can0 0CFF6600#3003FF7600FFFFFF
(1557265722.687624) can0 18F00527#FFFFFFFF204EFFFF
(1557265722.694738) can0 18FEF186#FFFFFFF3CCFFAF90
(1557265722.703191) can0 0CF00400#FFFFFF8219FFFF7B
(1557265722.703191) can0 0CFF6600#3003FF7600FFFFFF
(1557265722.714043) can0 18FEF100#FFFFFFCCFFFFF0FF
(1557265722.714044) can0 10FF6500#FFFFFFFF7FFFFFFD
(1557265722.715216) can0 18FEF200#1A000000662307FF
(1557265722.715217) can0 18FF6D00#31F131FFFFFFFFFF
(1557265722.723117) can0 0CF00400#FFFFFF8219FFFF7B
(1557265722.723117) can0 0CFF6600#3003FF7600FFFFFF
(1557265722.728709) can0 18F0010B#CFFFFFFFFFDC0BFF
(1557265722.728710) can0 10FF6587#1C03FFFCFFFFFFFF
(1557265722.729813) can0 18FEBF0B#000000007DFFFFFF
(1557265722.729814) can0 18FECA0B#04FF00000000FFFF
(1557265722.730988) can0 18FEF10B#3F0000FFFFFFFFFF
(1557265722.730989) can0 18FEF187#FFFFFF7FFFFF9F1F
(1557265722.733364) can0 18FECA86#00FF00000000FFFF
(1557265722.743214) can0 0CF00400#FFFFFF181AFFFF7B
(1557265722.743215) can0 0CFF6600#4303FF7600FFFFFF
(1557265722.754705) can0 10FF6586#F3FFFFF37FFFF0F3
(1557265722.763503) can0 0CF00400#FFFFFF181AFFFF7B
(1557265722.763504) can0 0CFF6600#4303FF7600FFFFFF
(1557265722.777401) can0 18FF7286#FFFEFFFFFFFFFFFF
(1557265722.777402) can0 1CFF6A27#3FFC00F3FFFFFFFF
(1557265722.783378) can0 0CF00400#FFFFFF181AFFFF7B
(1557265722.783378) can0 0CFF6600#4303FF7600FFFFFF
(1557265722.787845) can0 18F00527#FFFFFFFF204EFFFF
(1557265722.787846) can0 18FECA27#00FF00000000FFFF
(1557265722.794843) can0 18FEF186#FFFFFFF3CCFFBF80
(1557265722.803298) can0 0CF00400#FFFFFFBA19FFFF7A
(1557265722.803299) can0 0CFF6600#3703FF7600FFFFFF
(1557265722.814355) can0 18FEF100#FFFFFFCCFFFFF0FF
(1557265722.814357) can0 18FEF200#1A000000662307FF
(1557265722.815532) can0 18FF6D00#31F131FFFFFFFFFF
(1557265722.823733) can0 0CF00400#FFFFFFBA19FFFF7A
(1557265722.823734) can0 0CFF6600#3703FF7600FFFFFF
(1557265722.828707) can0 18F0010B#CFFFFFFFFFDC0BFF
(1557265722.828709) can0 18FEBF0B#000000007DFFFFFF
(1557265722.829802) can0 18FEF10B#3F0000FFFFFFFFFF
(1557265722.829803) can0 18FEF187#FFFFFF7FFFFFAF2F
(1557265722.843145) can0 0CF00400#FFFFFFBA19FFFF7A
(1557265722.843146) can0 0CFF6600#3703FF7600FFFFFF
(1557265722.863296) can0 0CF00400#FFFFFFBA19FFFF7A
(1557265722.863298) can0 0CFF6600#3703FF7600FFFFFF
(1557265722.873478) can0 18FEEE00#79FFFFFFFFFFFFFF
(1557265722.873479) can0 0CFE4100#FF0FFFFFFFFFFFFF
(1557265722.874619) can0 18FECA00#00FF00000000FFFF
(1557265722.874620) can0 18FEFC00#FF2CFFFFFFFFFFFF
(1557265722.875790) can0 18FEF700#FFFFFFFF2001FFFF
(1557265722.877585) can0 10FF6527#FFFFFFCFFFFFFFFF
(1557265722.883220) can0 0CF00400#FFFFFF9819FFFF7B
(1557265722.883221) can0 0CFF6600#3303FF7600FFFFFF
(1557265722.887467) can0 18F00527#FFFFFFFF204EFFFF
(1557265722.887469) can0 18FF6E27#DFFFFFFFFFFFFFFF
(1557265722.888735) can0 18FF7127#F0FFFFFFFFFFFFFF
(1557265722.888737) can0 0CFE4127#FFFFFFFFFFFFFFFF
(1557265722.894737) can0 18FEF186#FFFFFFF3CCFFCFF0
(1557265722.903590) can0 0CF00400#FFFFFF9819FFFF7B
(1557265722.903591) can0 0CFF6600#3303FF7600FFFFFF
(1557265722.914050) can0 18FEF100#FFFFFFCCFFFFF0FF
(1557265722.914052) can0 10FF6500#FFFFFFFF7FFFFFFD
(1557265722.915186) can0 18FEF200#1B000000662307FF
(1557265722.915187) can0 18FF6D00#31F131FFFFFFFFFF
(1557265722.923081) can0 0CF00400#FFFFFF9819FFFF7B
(1557265722.923082) can0 0CFF6600#3303FF7600FFFFFF
(1557265722.925443) can0 18FECA87#00FF00000000FFFF
(1557265722.928600) can0 18F0010B#CFFFFFFFFFDC0BFF
(1557265722.928601) can0 18FEBF0B#000000007DFFFFFF
(1557265722.929792) can0 18FEF10B#3F0000FFFFFFFFFF
(1557265722.930862) can0 10FF6587#1C03FFFCFFFFFFFF
(1557265722.930863) can0 18FEF187#FFFFFF7FFFFFBF3F
(1557265722.938960) can0 09F8021C#FFFC00000000FFFF
(1557265722.938962) can0 09F8011C#0000000000000000
(1557265722.940960) can0 19FA031C#FFC20E270E270E27
(1557265722.940961) can0 10FF6487#FFFFFFF0F0FFFFFF
(1557265722.942105) can0 0DF0101C#FFF5CC2A00000000
(1557265722.943284) can0 0CF00400#FFFFFF9819FFFF7B
(1557265722.943285) can0 0CFF6600#3303FF7600FFFFFF
(1557265722.944456) can0 18FEE81C#FFFFFFFFFFFFFFFF
(1557265722.946056) can0 19FA041C#204BFFFF06020000
(1557265722.947106) can0 19FA041C#2100000000FFFFFF
(1557265722.947107) can0 19FA041C#22FFFF0600000000
(1557265722.949109) can0 19FA041C#230000FFFFFFFFFF
(1557265722.950130) can0 19FA041C#240C000000000000
(1557265722.950131) can0 19FA041C#25FFFFFFFFFF1100
(1557265722.952152) can0 19FA041C#260000000000FFFF
(1557265722.952153) can0 19FA041C#27FFFFFF13000000
(1557265722.954155) can0 19FA041C#28000000FFFFFFFF
(1557265722.955187) can0 19FA041C#29FF180000000000
(1557265722.955188) can0 19FA041C#2A00FFFFFFFFFFFF
(1557265722.956724) can0 10FF6586#F3FFFFF37FFFF0F3
(1557265722.963231) can0 0CF00400#FFFFFFAC19FFFF7B
(1557265722.963232) can0 0CFF6600#3503FF7600FFFFFF
(1557265722.968226) can0 18FF7287#FEFFFFFFFFFFFFFF
(1557265722.983561) can0 0CF00400#FFFFFFAC19FFFF7B
(1557265722.983562) can0 0CFF6600#3503FF7600FFFFFF
(1557265722.987538) can0 18F00527#FFFFFFFF204EFFFF
(1557265722.995804) can0 18FEF186#FFFFFFF3CCFFDFE0
(1557265723.003230) can0 0CF00400#FFFFFFAC19FFFF7B
(1557265723.003231) can0 0CFF6600#3503FF7600FFFFFF
(1557265723.014208) can0 18FEF100#FFFFFFCCFFFFF0FF
(1557265723.014209) can0 18FEF200#1B000000662307FF
(1557265723.015359) can0 18FF6D00#31F131FFFFFFFFFF
(1557265723.023306) can0 0CF00400#FFFFFF2819FFFF7B
(1557265723.023307) can0 0CFF6600#2503FF7600FFFFFF
(1557265723.028656) can0 18F0010B#CFFFFFFFFFDC0BFF
(1557265723.028657) can0 18FEBF0B#000000007DFFFFFF
(1557265723.029809) can0 18FEF10B#3F0000FFFFFFFFFF
(1557265723.031499) can0 18FEF187#FFFFFF7FFFFFCF4F
(1557265723.043200) can0 0CF00400#FFFFFF2819FFFF7B
(1557265723.043202) can0 0CFF6600#2503FF7600FFFFFF
(1557265723.063164) can0 0CF00400#FFFFFF2819FFFF7B
(1557265723.063165) can0 0CFF6600#2503FF7600FFFFFF
(1557265723.077618) can0 10FF6527#FFFFFFCFFFFFFFFF
(1557265723.083227) can0 0CF00400#FFFFFF2819FFFF7B
(1557265723.083228) can0 0CFF6600#2503FF7600FFFFFF
(1557265723.087499) can0 18F00527#FFFFFFFF204EFFFF
(1557265723.095792) can0 18FEF186#FFFFFFF3CCFFEFD0
(1557265723.103317) can0 0CF00400#FFFFFFCC18FFFF7B
(1557265723.103318) can0 0CFF6600#1903FF7600FFFFFF
(1557265723.114239) can0 18FEF100#FFFFFFCCFFFFF0FF
(1557265723.114240) can0 10FF6500#FFFFFFFF7FFFFFFD
(1557265723.115365) can0 18FEF200#1B000000662307FF
(1557265723.115366) can0 18FF6D00#31F131FFFFFFFFFF
(1557265723.123192) can0 0CF00400#FFFFFFCC18FFFF7B
(1557265723.123193) can0 0CFF6600#1903FF7600FFFFFF
(1557265723.128647) can0 18F0010B#CFFFFFFFFFDC0BFF
(1557265723.128649) can0 18FEBF0B#100200007CFFFFFF
(1557265723.129795) can0 18FEF10B#3F0000FFFFFFFFFF
(1557265723.131559) can0 10FF6587#1C03FFFCFFFFFFFF
(1557265723.131560) can0 18FEF187#FFFFFF7FFFFFDF5F
(1557265723.143293) can0 0CF00400#FFFFFFCC18FFFF7B
(1557265723.143295) can0 0CFF6600#1903FF7600FFFFFF
(1557265723.156794) can0 10FF6586#F3FFFFF37FFFF0F3
(1557265723.163106) can0 0CF00400#FFFFFFCC18FFFF7B
(1557265723.163107) can0 0CFF6600#1903FF7600FFFFFF
(1557265723.183170) can0 0CF00400#FFFFFF4E19FFFF7B
(1557265723.183171) can0 0CFF6600#2903FF7600FFFFFF
(1557265723.187402) can0 18F00527#FFFFFFFF204EFFFF
(1557265723.196693) can0 18FEF186#FFFFFFF3CCFFFFC0
(1557265723.203118) can0 0CF00400#FFFFFF4E19FFFF7B
(1557265723.203119) can0 0CFF6600#2903FF7600FFFFFF
(1557265723.214127) can0 18FEF100#FFFFFFCCFFFFF0FF
(1557265723.214128) can0 18FEF200#1B000000662307FF
(1557265723.215298) can0 18FF6D00#31F131FFFFFFFFFF
(1557265723.223149) can0 0CF00400#FFFFFF4E19FFFF7B
(1557265723.223150) can0 0CFF6600#2903FF7600FFFFFF
(1557265723.228544) can0 18F0010B#CFFFFFFFFFDC0BFF
(1557265723.228545) can0 18FEBF0B#180200007CFFFFFF
(1557265723.229690) can0 18FEF10B#3F0000FFFFFFFFFF
(1557265723.231989) can0 18FEF187#FFFFFF3FFFFFEF2F
(1557265723.244096) can0 0CF00400#FFFFFFB419FFFF7B
(1557265723.244097) can0 0CFF6600#3603FF7600FFFFFF
(1557265723.263522) can0 0CF00400#FFFFFFB419FFFF7B
(1557265723.263523) can0 0CFF6600#3603FF7600FFFFFF
(1557265723.277501) can0 10FF6527#FFFFFFCFFFFFFFFF
(1557265723.277502) can0 1CFF6A27#3FFC00F3FFFFFFFF
(1557265723.283086) can0 0CF00400#FFFFFFB419FFFF7B
(1557265723.283087) can0 0CFF6600#3603FF7600FFFFFF
(1557265723.287393) can0 18F00527#FFFFFFFF204EFFFF
(1557265723.296687) can0 18FEF186#FFFFFFF3CCFF0F30
(1557265723.303164) can0 0CF00400#FFFFFFB419FFFF7B
(1557265723.303166) can0 0CFF6600#3603FF7600FFFFFF
(1557265723.313987) can0 18FEF100#FFFFFFCCFFFFF0FF
(1557265723.313988) can0 10FF6500#FFFFFFFF7FFFFFFD
(1557265723.315135) can0 18FEF200#1B000000662307FF
(1557265723.315136) can0 18FF6D00#31F131FFFFFFFFFF
(1557265723.323127) can0 0CF00400#FFFFFF2A19FFFF7B
(1557265723.323128) can0 0CFF6600#2503FF7600FFFFFF
(1557265723.328480) can0 18F0010B#CFFFFFFFFFDC0BFF
(1557265723.328481) can0 18FEBF0B#210200007BFFFFFF
(1557265723.329667) can0 18FEF10B#3F0000FFFFFFFFFF
(1557265723.332001) can0 10FF6587#1C03FFFCFFFFFFFF
(1557265723.332002) can0 18FEF187#FFFFFF3FFFFFFF3F
(1557265723.343202) can0 0CF00400#FFFFFF2A19FFFF7B
(1557265723.343203) can0 0CFF6600#2503FF7600FFFFFF
(1557265723.356677) can0 10FF6586#F3FFFFF37FFFF0F3
(1557265723.363056) can0 0CF00400#FFFFFF2A19FFFF7B
(1557265723.363057) can0 0CFF6600#2503FF7600FFFFFF
(1557265723.383200) can0 0CF00400#FFFFFF2A19FFFF7B
(1557265723.383201) can0 0CFF6600#2503FF7600FFFFFF
(1557265723.387378) can0 18F00527#FFFFFFFF204EFFFF
(1557265723.396678) can0 18FEF186#FFFFFFF3CCFF1F20
(1557265723.403151) can0 0CF00400#FFFFFF6818FFFF7C
(1557265723.403153) can0 0CFF6600#0D03FF7600FFFFFF
(1557265723.414199) can0 18FEF100#FFFFFFCCFFFFF0FF
(1557265723.414200) can0 18FEF200#1B000000662307FF
(1557265723.415371) can0 18FF6D00#31F131FFFFFFFFFF
(1557265723.423172) can0 0CF00400#FFFFFF6818FFFF7C
(1557265723.423173) can0 0CFF6600#0D03FF7600FFFFFF
(1557265723.428471) can0 18F0010B#CFFFFFFFFFDC0BFF
(1557265723.428472) can0 18FEBF0B#0E0200007DFFFFFF
(1557265723.429665) can0 18FEF10B#3F0000FFFFFFFFFF
(1557265723.431996) can0 18FEF187#FFFFFF3FFFFF0FCF
(1557265723.439397) can0 09F8021C#FFFC00000000FFFF
(1557265723.440424) can0 09F8011C#0000000000000000
(1557265723.440426) can0 19FA031C#FFC20E270E270E27
(1557265723.442392) can0 0DF0101C#FFF5CC2A00000000
(1557265723.442393) can0 10FF6487#FFFFFFF0F0FFFFFF
(1557265723.443532) can0 0CF00400#FFFFFF6818FFFF7C
(1557265723.443533) can0 0CFF6600#0D03FF7600FFFFFF
(1557265723.444723) can0 18FEE81C#FFFFFFFFFFFFFFFF
(1557265723.444724) can0 19FA041C#404BFFFF06020000
(1557265723.446520) can0 19FA041C#4100000000FFFFFF
(1557265723.447515) can0 19FA041C#42FFFF0600000000
(1557265723.447516) can0 19FA041C#430000FFFFFFFFFF
(1557265723.449556) can0 19FA041C#440C000000000000
(1557265723.449557) can0 19FA041C#45FFFFFFFFFF1100
(1557265723.451566) can0 19FA041C#460000000000FFFF
(1557265723.452571) can0 19FA041C#47FFFFFF13000000
(1557265723.453663) can0 19FA041C#48000000FFFFFFFF
(1557265723.453667) can0 19FA041C#49FF180000000000
(1557265723.455659) can0 19FA041C#4A00FFFFFFFFFFFF
(1557265723.463118) can0 0CF00400#FFFFFF6818FFFF7C
(1557265723.463119) can0 0CFF6600#0D03FF7600FFFFFF
(1557265723.477461) can0 10FF6527#FFFFFFCFFFFFFFFF
(1557265723.483136) can0 0CF00400#FFFFFF6818FFFF7C
(1557265723.483138) can0 0CFF6600#0D03FF7600FFFFFF
(1557265723.487365) can0 18F00527#FFFFFFFF204EFFFF
(1557265723.497653) can0 18FEF186#FFFFFFF3CCFF2F10
(1557265723.503974) can0 0CF00400#FFFFFF6818FFFF7C
(1557265723.503975) can0 0CFF6600#0D03FF7600FFFFFF
(1557265723.513960) can0 18FEF100#FFFFFFCCFFFFF0FF
(1557265723.513961) can0 10FF6500#FFFFFFFF7FFFFFFD
(1557265723.515102) can0 18FEF200#1B000000662307FF
(1557265723.515103) can0 18FF6D00#31F131FFFFFFFFFF
(1557265723.523075) can0 0CF00400#FFFFFF6818FFFF7C
(1557265723.523076) can0 0CFF6600#0D03FF7600FFFFFF
(1557265723.528461) can0 18F0010B#CFFFFFFFFFDC0BFF
(1557265723.528463) can0 18FEBF0B#2D0200007BFFFFFF
(1557265723.529654) can0 18FEF10B#3F0000FFFFFFFFFF
(1557265723.529656) can0 18FF7117#00FFFFFFFFFFFFFF
(1557265723.532805) can0 10FF6587#1C03FFFCFFFFFFFF
(1557265723.532806) can0 18FEF187#FFFFFF3FFFFF1FDF
(1557265723.543128) can0 0CF00400#FFFFFF6818FFFF7C
(1557265723.543129) can0 0CFF6600#0D03FF7600FFFFFF
(1557265723.549557) can0 18FEF517#FFFFFF6025FFFFFF
(1557265723.554058) can0 18FF71A7#00FFFFFFFFFFFFFF
(1557265723.557650) can0 10FF6586#F3FFFFF37FFFF0F3
(1557265723.563155) can0 0CF00400#FFFFFFDA18FFFF7C
(1557265723.563156) can0 0CFF6600#1B03FF7600FFFFFF
(1557265723.583399) can0 0CF00400#FFFFFFDA18FFFF7C
(1557265723.583400) can0 0CFF6600#1B03FF7600FFFFFF
(1557265723.587358) can0 18F00527#FFFFFFFF204EFFFF
(1557265723.594041) can0 18FEC1A7#7815160078151600
(1557265723.597645) can0 18FEF186#FFFFFFF3CCFF3F00
(1557265723.603101) can0 0CF00400#FFFFFFDA18FFFF7C
(1557265723.603102) can0 0CFF6600#1B03FF7600FFFFFF
(1557265723.614067) can0 18FEF100#FFFFFFCCFFFFF0FF
(1557265723.614068) can0 18FEF200#1B000000662307FF
(1557265723.615246) can0 18FF6D00#31F131FFFFFFFFFF
(1557265723.624121) can0 0CF00400#FFFFFFE018FFFF7C
(1557265723.624122) can0 0CFF6600#1C03FF7600FFFFFF
(1557265723.628447) can0 18F0010B#CFFFFFFFFFDC0BFF
(1557265723.628448) can0 18FEBF0B#360200007AFFFFFF
(1557265723.629639) can0 18FEF10B#3F0000FFFFFFFFFF
(1557265723.632775) can0 18FEF187#FFFFFF3FFFFF2FEF
(1557265723.643139) can0 0CF00400#FFFFFFE018FFFF7B
(1557265723.643140) can0 0CFF6600#1C03FF7600FFFFFF
(1557265723.663368) can0 0CF00400#FFFFFFE018FFFF7B
(1557265723.663369) can0 0CFF6600#1C03FF7600FFFFFF
(1557265723.677415) can0 10FF6527#FFFFFFCFFFFFFFFF
(1557265723.683106) can0 0CF00400#FFFFFFE018FFFF7B
(1557265723.683107) can0 0CFF6600#1C03FF7600FFFFFF
(1557265723.687311) can0 18F00527#FFFFFFFF204EFFFF
(1557265723.697632) can0 18FEF186#FFFFFFF3CCFF4F70
(1557265723.704087) can0 0CF00400#FFFFFF3618FFFF7C
(1557265723.704088) can0 0CFF6600#0603FF7600FFFFFF
(1557265723.713986) can0 18FEF100#FFFFFFCCFFFFF0FF
(1557265723.713988) can0 10FF6500#FFFFFFFF7FFFFFFD
(1557265723.715150) can0 18FEF200#1B000000662307FF
(1557265723.715151) can0 18FF6D00#31F131FFFFFFFFFF
(1557265723.723326) can0 0CF00400#FFFFFF3618FFFF7C
(1557265723.723327) can0 0CFF6600#0603FF7600FFFFFF
(1557265723.728377) can0 18F0010B#CFFFFFFFFFDC0BFF
(1557265723.728378) can0 18FEBF0B#4902000079FFFFFF
(1557265723.729619) can0 18FECA0B#04FF00000000FFFF
(1557265723.729620) can0 18FEF10B#3F0000FFFFFFFFFF
(1557265723.732781) can0 10FF6587#1C03FFFCFFFFFFFF
(1557265723.732782) can0 18FEF187#FFFFFF3FFFFF3FFF
(1557265723.734300) can0 18FECA86#00FF00000000FFFF
(1557265723.743381) can0 0CF00400#FFFFFF3618FFFF7C
(1557265723.743383) can0 0CFF6600#0603FF7600FFFFFF
(1557265723.757622) can0 10FF6586#F3FFFFF37FFFF0F3
(1557265723.763080) can0 0CF00400#FFFFFF3618FFFF7C
(1557265723.763081) can0 0CFF6600#0603FF7600FFFFFF
(1557265723.777393) can0 1CFF6A27#3FFC00F3FFFFFFFF
(1557265723.780076) can0 18FF7286#FFFEFFFFFFFFFFFF
(1557265723.783165) can0 0CF00400#FFFFFFFE17FFFF7C
(1557265723.783165) can0 0CFF6600#FF02FF7600FFFFFF
(1557265723.787302) can0 18F00527#FFFFFFFF204EFFFF
(1557265723.787303) can0 18FECA27#00FF00000000FFFF
(1557265723.797595) can0 18FEF186#FFFFFFF3CCFF5F60
(1557265723.803101) can0 0CF00400#FFFFFFFE17FFFF7C
(1557265723.803102) can0 0CFF6600#FF02FF7600FFFFFF
(1557265723.814200) can0 18FEF100#FFFFFFCCFFFFF0FF
(1557265723.814201) can0 18FEF200#1B000000662307FF
(1557265723.815372) can0 18FF6D00#31F131FFFFFFFFFF
(1557265723.823119) can0 0CF00400#FFFFFFFE17FFFF7C
(1557265723.823120) can0 0CFF6600#FF02FF7600FFFFFF
(1557265723.828347) can0 18F0010B#CFFFFFFFFFDC0BFF
(1557265723.828348) can0 18FEBF0B#380200007AFFFFFF
(1557265723.829475) can0 18FEF10B#3F0000FFFFFFFFFF
(1557265723.832697) can0 18FEF187#FFFFFF3FFFFF4F8F
(1557265723.843045) can0 0CF00400#FFFFFFFE17FFFF7C
(1557265723.843046) can0 0CFF6600#FF02FF7600FFFFFF
(1557265723.863066) can0 0CF00400#FFFFFF8818FFFF7C
(1557265723.863067) can0 0CFF6600#1103FF7600FFFFFF
(1557265723.872469) can0 18FEEE00#79FFFFFFFFFFFFFF
(1557265723.872486) can0 0CFE4100#FF0FFFFFFFFFFFFF
(1557265723.873640) can0 18FECA00#00FF00000000FFFF
(1557265723.873641) can0 18FEFC00#FF37FFFFFFFFFFFF
(1557265723.874815) can0 18FEF700#FFFFFFFF2001FFFF
(1557265723.877560) can0 10FF6527#FFFFFFCFFFFFFFFF
(1557265723.883011) can0 0CF00400#FFFFFF8818FFFF7C
(1557265723.883028) can0 0CFF6600#1103FF8000FFFFFF
(1557265723.887241) can0 18F00527#FFFFFFFF204EFFFF
(1557265723.887241) can0 18FF6E27#DFFFFFFFFFFFFFFF
(1557265723.888438) can0 18FF7127#F0FFFFFFFFFFFFFF
(1557265723.888438) can0 0CFE4127#FFFFFFFFFFFFFFFF
(1557265723.897481) can0 18FEF186#FFFFFFF3CCFF6F50
(1557265723.903092) can0 0CF00400#FFFFFF8818FFFF7C
(1557265723.903093) can0 0CFF6600#1103FF8000FFFFFF
(1557265723.913913) can0 18FEF100#FFFFFFCCFFFFF0FF
(1557265723.913913) can0 10FF6500#FFFFFFFF7FFFFFFD
(1557265723.915058) can0 18FEF200#18000000662307FF
(1557265723.915059) can0 18FF6D00#31F131FFFFFFFFFF
(1557265723.922986) can0 0CF00400#FFFFFF8818FFFF7C
(1557265723.922987) can0 0CFF6600#1103FF8000FFFFFF
(1557265723.925785) can0 18FECA87#00FF00000000FFFF
(1557265723.928307) can0 18F0010B#CFFFFFFFFFDC0BFF
(1557265723.928308) can0 18FEBF0B#4302000079FFFFFF
(1557265723.929462) can0 18FEF10B#3F0000FFFFFFFFFF
(1557265723.932657) can0 10FF6587#1C03FFFCFFFFFFFF
(1557265723.932658) can0 18FEF187#FFFFFF3FFFFF5F9F
(1557265723.938783) can0 09F8021C#FFFC00000000FFFF
(1557265723.939779) can0 09F8011C#0000000000000000
(1557265723.939796) can0 19FA031C#FFC20E270E270E27
(1557265723.941794) can0 0DF0101C#FFF5CC2A00000000
(1557265723.943232) can0 0CF00400#FFFFFFC018FFFF7C
(1557265723.943233) can0 10FF6487#FFFFFFF0F0FFFFFF
(1557265723.944354) can0 0CFF6600#1803FF8000FFFFFF
(1557265723.944355) can0 18FEE81C#FFFFFFFFFFFFFFFF
(1557265723.945907) can0 19FA041C#604BFFFF06020000
(1557265723.946930) can0 19FA041C#6100000000FFFFFF
(1557265723.946931) can0 19FA041C#62FFFF0600000000
(1557265723.948957) can0 19FA041C#630000FFFFFFFFFF
(1557265723.949953) can0 19FA041C#640C000000000000
(1557265723.949954) can0 19FA041C#65FFFFFFFFFF1100
(1557265723.951983) can0 19FA041C#660000000000FFFF
(1557265723.951984) can0 19FA041C#67FFFFFF13000000
(1557265723.953999) can0 19FA041C#68000000FFFFFFFF
(1557265723.955023) can0 19FA041C#69FF180000000000
(1557265723.955024) can0 19FA041C#6A00FFFFFFFFFFFF
(1557265723.957805) can0 10FF6586#F3FFFFF37FFFF0F3
(1557265723.963356) can0 0CF00400#FFFFFFC018FFFF7C
(1557265723.963357) can0 0CFF6600#1803FF8000FFFFFF
(1557265723.970080) can0 18FF7287#FEFFFFFFFFFFFFFF
(1557265723.983054) can0 0CF00400#FFFFFFC018FFFF7C
(1557265723.983055) can0 0CFF6600#1803FF8000FFFFFF
(1557265723.987401) can0 18F00527#FFFFFFFF204EFFFF
(1557265723.997569) can0 18FEF186#FFFFFFF3CCFF7F40
(1557265724.003024) can0 0CF00400#FFFFFFC018FFFF7C
(1557265724.003025) can0 0CFF6600#1803FF8000FFFFFF
(1557265724.014025) can0 18FEF100#FFFFFFCCFFFFF0FF
(1557265724.014026) can0 18FEF200#18000000662307FF
(1557265724.015221) can0 18FF6D00#31F131FFFFFFFFFF
(1557265724.023046) can0 0CF00400#FFFFFF7E18FFFF7C
(1557265724.023047) can0 0CFF6600#0F03FF8000FFFFFF
(1557265724.028299) can0 18F0010B#CFFFFFFFFFDC0BFF
(1557265724.028300) can0 18FEBF0B#5D02000078FFFFFF
(1557265724.029445) can0 18FEF10B#3F0602FFFFFFFFFF
(1557265724.032693) can0 18FEF187#FFFFFF3FFFFF6FAF
(1557265724.042994) can0 0CF00400#FFFFFF7E18FFFF7C
(1557265724.043010) can0 0CFF6600#0F03FF8000FFFFFF
(1557265724.063075) can0 0CF00400#FFFFFF7E18FFFF7C
(1557265724.063076) can0 0CFF6600#0F03FF8000FFFFFF
(1557265724.077167) can0 10FF6527#FFFFFFCFFFFFFFFF
(1557265724.084008) can0 0CF00400#FFFFFF9018FFFF7C
(1557265724.084008) can0 0CFF6600#1203FF8000FFFFFF
(1557265724.087363) can0 18F00527#FFFFFFFF204EFFFF
(1557265724.087364) can0 18EEFF41#000020380013A090
(1557265724.089961) can0 18EEFF00#08CF600600000000
(1557265724.096875) can0 18FEF186#FFFFFFF3CCFF8FB0
(1557265724.103062) can0 0CF00400#FFFFFF9018FFFF7C
(1557265724.103063) can0 0CFF6600#1203FF8000FFFFFF
(1557265724.114556) can0 18FEF100#FFFFFFCCFFFFF0FF
(1557265724.114556) can0 10FF6500#FFFFFFFF7FFFFFFD
(1557265724.115657) can0 18FEF200#18000000662307FF
(1557265724.115658) can0 18FF6D00#31F131FFFFFFFFFF
(1557265724.123136) can0 0CF00400#FFFFFF9018FFFF7C
(1557265724.123137) can0 0CFF6600#1203FF8000FFFFFF
(1557265724.128263) can0 18F0010B#CFFFFFFFFFDC0BFF
(1557265724.128264) can0 18FEBF0B#6A02000078FFFFFF
(1557265724.129382) can0 18FEF10B#3F1302FFFFFFFFFF
(1557265724.132656) can0 10FF6587#1C03FFFCFFFFFFFF
(1557265724.132657) can0 18FEF187#FFFFFF3FFFFF7FBF
(1557265724.143133) can0 0CF00400#FFFFFF9018FFFF7C
(1557265724.143134) can0 0CFF6600#1203FF8000FFFFFF
(1557265724.163057) can0 0CF00400#FFFFFFB418FFFF7C
(1557265724.163057) can0 0CFF6600#1603FF8000FFFFFF
(1557265724.167583) can0 10FF6586#F3FFFFF37FFFF0F3
(1557265724.184006) can0 0CF00400#FFFFFFB418FFFF7C
(1557265724.184007) can0 0CFF6600#1603FF8000FFFFFF
(1557265724.187388) can0 18F00527#FFFFFFFF204EFFFF
(1557265724.197588) can0 18FEF186#FFFFFFF3CCFF9FA0
(1557265724.203010) can0 0CF00400#FFFFFFB418FFFF7C
(1557265724.203011) can0 0CFF6600#1603FF8000FFFFFF
(1557265724.214031) can0 18FEF100#FFFFFFCCFFFFF0FF
(1557265724.214032) can0 18FEF200#18000000662307FF
(1557265724.215203) can0 18FF6D00#31F131FFFFFFFFFF
(1557265724.223088) can0 0CF00400#FFFFFFB418FFFF7C
(1557265724.223089) can0 0CFF6600#1603FF8000FFFFFF
(1557265724.228244) can0 18F0010B#CFFFFFFFFFDC0BFF
(1557265724.228245) can0 18FEBF0B#7802000078FFFFFF
(1557265724.229399) can0 18FEF10B#3F1F02FFFFFFFFFF
(1557265724.232661) can0 18FEF187#FFFFFF3FFFFF8F4F
(1557265724.243069) can0 0CF00400#FFFFFF6E18FFFF7C
(1557265724.243070) can0 0CFF6600#0D03FF8000FFFFFF
(1557265724.263191) can0 0CF00400#FFFFFF6E18FFFF7C
(1557265724.263193) can0 0CFF6600#0D03FF8000FFFFFF
(1557265724.277219) can0 10FF6527#FFFFFFCFFFFFFFFF
(1557265724.277221) can0 1CFF6A27#3FFC00F3FFFFFFFF
(1557265724.283120) can0 0CF00400#FFFFFF6E18FFFF7C
(1557265724.283121) can0 0CFF6600#0D03FF8000FFFFFF
(1557265724.287437) can0 18F00527#FFFFFFFF204EFFFF
(1557265724.297636) can0 18FEF186#FFFFFFF3CCFFAF90
(1557265724.303158) can0 0CF00400#FFFFFF6E18FFFF7C
(1557265724.303159) can0 0CFF6600#0D03FF8000FFFFFF
(1557265724.314967) can0 18FEF100#FFFFFFCCFFFFF0FF
(1557265724.314971) can0 10FF6500#FFFFFFFF7FFFFFFD
(1557265724.316082) can0 18FEF200#18000000662307FF
(1557265724.316083) can0 18FF6D00#31F131FFFFFFFFFF
(1557265724.323087) can0 0CF00400#FFFFFFB218FFFF7C
(1557265724.323088) can0 0CFF6600#1603FF8000FFFFFF
(1557265724.328247) can0 18F0010B#CFFFFFFFFFDC0BFF
(1557265724.328248) can0 18FEBF0B#8102000078FFFFFF
(1557265724.329371) can0 18FEF10B#3F2A02FFFFFFFFFF
(1557265724.332648) can0 10FF6587#1C03FFFCFFFFFFFF
(1557265724.332649) can0 18FEF187#FFFFFF3FFFFF9F5F
(1557265724.338080) can0 18EA0041#DAFE00
(1557265724.338082) can0 18FECA41#FFFF00000000FFFF
(1557265724.339314) can0 1CFF6A41#FF00FFFFFFFFC0FF
(1557265724.339315) can0 18FF8341#FFFF00F0FFFFFFFF
(1557265724.340512) can0 18FF7041#000000F8FFFFFFFF
(1557265724.340513) can0 18FF7141#F000F8FFB06F0000
(1557265724.343229) can0 0CF00400#FFFFFFB218FFFF7C
(1557265724.343230) can0 0CFF6600#1603FF8000FFFFFF
(1557265724.351906) can0 1CEC4100#1073001111DAFE00
(1557265724.358006) can0 1CEC0041#111101FFFFDAFE00
(1557265724.361825) can0 1CEB4100#010A2A4E31395443
(1557265724.363111) can0 0CF00400#FFFFFFB218FFFF7C
(1557265724.363112) can0 0CFF6600#1603FF8000FFFFFF
(1557265724.365850) can0 1CEB4100#02414141414A2A46
(1557265724.367689) can0 10FF6586#F3FFFFF37FFFF0F3
(1557265724.369848) can0 1CEB4100#033030484D303031
(1557265724.373773) can0 1CEB4100#0438362A30303033
(1557265724.377798) can0 1CEB4100#0535303837363737
(1557265724.381778) can0 1CEB4100#06302A35364B5443
(1557265724.383064) can0 0CF00400#FFFFFFB218FFFF7C
(1557265724.383065) can0 0CFF6600#1603FF8000FFFFFF
(1557265724.385763) can0 1CEB4100#07414141394B3333
(1557265724.387397) can0 18F00527#FFFFFFFF204EFFFF
(1557265724.387398) can0 10FF6C41#00FFFFFFF0FFFFFF
(1557265724.389801) can0 1CEB4100#0836353836392A20
(1557265724.393767) can0 1CEB4100#0920203430313431
(1557265724.397537) can0 18FEF186#FFFFFFF3CCFFBF80
(1557265724.397538) can0 18F00141#FFFF3CFFFFFFFFFF
(1557265724.398620) can0 1CEB4100#0A32352A4E410000
(1557265724.401789) can0 1CEB4100#0B000000002A564D
(1557265724.403013) can0 0CF00400#FFFFFF0A19FFFF7C
(1557265724.403014) can0 0CFF6600#2103FF8000FFFFFF
(1557265724.405760) can0 1CEB4100#0C42384630413946
(1557265724.407936) can0 10FF6541#FFFFFFCFFFC3FFFF
(1557265724.409766) can0 1CEB4100#0D312A5374616765
(1557265724.413844) can0 1CEB4100#0E203120496E2A34
(1557265724.413846) can0 18FEF100#FFFFFFCCFFFFF0FF
(1557265724.414985) can0 18FEF200#18000000662307FF
(1557265724.414986) can0 18FF6D00#31F131FFFFFFFFFF
(1557265724.417837) can0 1CEB4100#0F30313831323800
(1557265724.421763) can0 1CEB4100#102A464646464646
(1557265724.423106) can0 0CF00400#FFFFFF0A19FFFF7C
(1557265724.423107) can0 0CFF6600#2103FF8000FFFFFF
(1557265724.425836) can0 1CEB4100#1146462AFFFFFFFF
(1557265724.427885) can0 1CEC0041#13730011FFDAFE00
(1557265724.427886) can0 18F0010B#CFFFFFFFFFDC0BFF
(1557265724.429012) can0 18FEBF0B#7602000078FFFFFF
