;$FILEVERSION=1.1
;$STARTTIME=43614.5999164005
;
;   C:\Users\cpatel\Downloads\can logs from bike\trace2 with ign on off powen on etc.trc
;
;   Start time: 5/29/2019 14:23:52.777.0
;   Generated by PCAN-View v4.2.2.555
;
;   Message Number
;   |         Time Offset (ms)
;   |         |        Type
;   |         |        |        ID (hex)
;   |         |        |        |     Data Length
;   |         |        |        |     |   Data Bytes (hex) ...
;   |         |        |        |     |   |
;---+--   ----+----  --+--  ----+---  +  -+ -- -- -- -- -- -- --
     1)      3099.8  Rx     1CFF6A27  8  FF FF 00 F7 FF FF FF FF 
     2)      3100.4  Rx     0CFF0627  8  F2 FF 00 F2 FF FF FF 3F 
     3)      3109.5  Rx     18EEFF27  8  00 00 20 38 00 1E 00 00 
     4)      3110.1  Rx     10FF6527  8  FF FF FF FF FF FF FF FF 
     5)      3110.7  Rx     18FF6E27  8  FF FF FF FF FF FF FF FF 
     6)      3111.3  Rx     18FF7127  8  F0 FF FF FF FF FF FF FF 
     7)      3111.9  Rx     0CFE4127  8  FF FF FF FF FF FF FF FF 
     8)      3149.6  Rx     0CFF0627  8  F2 FF 00 F2 FF FF FF 3F 
     9)      3158.6  Rx     18EEFF00  8  A8 55 62 06 00 00 00 00 
    10)      3165.0  Rx     1CDD0027  8  86 00 00 00 00 00 00 00 
    11)      3168.7  Rx     1CDC2700  8  DC 00 00 00 00 00 00 00 
    12)      3180.9  Rx     0CF00400  8  FF FF FF 00 00 FF FF 72 
    13)      3181.5  Rx     0CFF6600  8  00 00 FF 7D 00 00 00 FF 
    14)      3199.5  Rx     1CFF6A27  8  7F FF 00 F7 FF FF FF FF 
    15)      3200.1  Rx     0CFF0627  8  F2 FF 00 F2 FF FF FF 3F 
    16)      3201.0  Rx     0CF00400  8  FF FF FF 00 00 FF FF 72 
    17)      3201.6  Rx     0CFF6600  8  00 00 FF 7D 00 00 00 FF 
    18)      3206.0  Rx     10FF6527  8  FF FF FF CF FF FF FF FF 
    19)      3220.8  Rx     0CF00400  8  FF FF FF 00 00 FF FF 72 
    20)      3221.4  Rx     0CFF6600  8  00 00 FF 7D 00 00 00 FF 
    21)      3224.0  Rx     18EEFF86  8  01 00 81 13 09 87 00 11 
    22)      3228.1  Rx     0CFF0686  8  F0 FF 00 F2 FF FF FF 6F 
    23)      3229.7  Rx     18EEFF87  8  01 00 82 13 09 87 00 11 
    24)      3230.2  Rx     0CFF0627  8  F0 FF 00 F2 FF FF FF 1F 
    25)      3231.7  Rx     18FEF100  8  FF FF FF CC FF FF F0 FF 
    26)      3232.3  Rx     18F00500  8  FF FF FF FF 2D 2D FF FF 
    27)      3232.9  Rx     18FEF200  8  00 00 00 00 99 68 30 FF 
    28)      3233.5  Rx     18FF6D00  8  31 F1 31 FF FF FF FF FF 
    29)      3235.8  Rx     10FF6586  8  F7 FF FF F3 7F FF F5 F3 
    30)      3236.4  Rx     18FEF186  8  FF FF FF F7 DD FF 0F 25 
    31)      3240.9  Rx     0CF00400  8  FF FF FF 00 00 FF FF 72 
    32)      3241.5  Rx     0CFF6600  8  00 00 FF 7D 00 00 00 FF 
    33)      3244.1  Rx     10FF6587  8  4D 57 FF FD FF FF FF FF 
    34)      3244.7  Rx     18FEF187  8  FF FF FF 7F FF FF 0F 8F 
    35)      3249.9  Rx     1CFF6A27  8  7F FC 00 F7 FF FF FF FF 
    36)      3260.9  Rx     0CF00400  8  FF FF FF 00 00 FF FF 72 
    37)      3261.5  Rx     0CFF6600  8  00 00 FF 7D 00 00 00 FF 
    38)      3280.9  Rx     0CF00400  8  FF FF FF 00 00 FF FF 72 
    39)      3281.5  Rx     0CFF6600  8  00 00 FF 7D 00 00 00 FF 
    40)      3299.5  Rx     10FF6527  8  FF FF FF CF FF FF FF FF 
    41)      3300.8  Rx     0CF00400  8  FF FF FF 00 00 FF FF 72 
    42)      3301.4  Rx     0CFF6600  8  00 00 FF 7D 00 00 00 FF 
    43)      3309.5  Rx     18EA0027  3  DA FE 00 
    44)      3320.9  Rx     0CF00400  8  FF FF FF 00 00 FF FF 72 
    45)      3321.5  Rx     0CFF6600  8  00 00 FF 7D 00 00 00 FF 
    46)      3330.5  Rx     1CEC2700  8  10 73 00 11 11 DA FE 00 
    47)      3331.8  Rx     18FEF100  8  FF FF FF CC FF FF F0 FF 
    48)      3332.3  Rx     10FF6500  8  FF FF FF FF 3F FF FF FD 
    49)      3332.9  Rx     18F00500  8  FF FF FF FF 2D 2D FF FF 
    50)      3333.5  Rx     18FEF200  8  00 00 00 00 99 68 0B FF 
    51)      3334.1  Rx     18FF6D00  8  31 F1 31 FF FF FF FF FF 
    52)      3336.1  Rx     10FF6586  8  F3 FF FF F3 3F FF F0 F3 
    53)      3336.7  Rx     18FEF186  8  FF FF FF F3 CC FF 1F 20 
    54)      3339.7  Rx     1CEC0027  8  11 11 01 FF FF DA FE 00 
    55)      3340.8  Rx     0CF00400  8  FF FF FF 00 00 FF FF 72 
    56)      3341.4  Rx     0CFF6600  8  00 00 FF 7D 00 00 00 FF 
    57)      3345.3  Rx     10FF6587  8  1C 03 FF FC FF FF FF FF 
    58)      3345.8  Rx     18FEF187  8  FF FF FF 3F FF FF 1F DF 
    59)      3349.7  Rx     1CFF6A27  8  7F FC 00 F7 FF FF FF FF 
    60)      3350.4  Rx     1CEB2700  8  01 0A 2A 4E 32 30 54 43 
    61)      3354.4  Rx     1CEB2700  8  02 44 42 42 42 54 2A 46 
    62)      3358.4  Rx     1CEB2700  8  03 30 30 48 4D 30 30 31 
    63)      3360.9  Rx     0CF00400  8  FF FF FF 00 00 FF FF 72 
    64)      3361.5  Rx     0CFF6600  8  00 00 FF 7D 00 00 00 FF 
    65)      3362.4  Rx     1CEB2700  8  04 38 36 2A 30 30 30 33 
    66)      3366.4  Rx     1CEB2700  8  05 35 31 32 30 39 39 33 
    67)      3369.8  Rx     10FF6500  8  FF FF FF FF 3F FF FF FC 
    68)      3370.4  Rx     1CEB2700  8  06 34 2A 35 36 4B 54 43 
    69)      3374.4  Rx     1CEB2700  8  07 44 42 42 35 4C 33 33 
    70)      3378.4  Rx     1CEB2700  8  08 37 37 36 32 35 2A 20 
    71)      3380.9  Rx     0CF00400  8  FF FF FF 00 00 FF FF 72 
    72)      3381.5  Rx     0CFF6600  8  00 00 FF 7D 00 00 00 FF 
    73)      3382.4  Rx     1CEB2700  8  09 20 20 34 30 31 34 31 
    74)      3386.4  Rx     1CEB2700  8  0A 32 35 2A 4E 41 5F 44 
    75)      3390.4  Rx     1CEB2700  8  0B 45 56 00 00 2A 56 4D 
    76)      3394.4  Rx     1CEB2700  8  0C 42 38 46 30 41 41 45 
    77)      3398.4  Rx     1CEB2700  8  0D 32 2A 4D 59 32 30 2D 
    78)      3399.8  Rx     1CFF6A27  8  3F FC 00 F7 FF FF FF FF 
    79)      3401.0  Rx     0CF00400  8  FF FF FF 00 00 FF FF 72 
    80)      3401.6  Rx     0CFF6600  8  00 00 FF 7D 00 00 00 FF 
    81)      3402.4  Rx     1CEB2700  8  0E 44 65 76 00 00 2A 34 
    82)      3404.8  Rx     1CDD0027  8  60 00 00 00 00 00 00 00 
    83)      3406.4  Rx     1CEB2700  8  0F 30 31 38 37 31 31 00 
    84)      3410.4  Rx     1CEB2700  8  10 2A 42 30 44 36 32 34 
    85)      3414.5  Rx     1CEB2700  8  11 35 36 2A FF FF FF FF 
    86)      3417.8  Rx     18EEFF79  8  00 00 00 00 00 FF 02 10 
    87)      3418.6  Rx     1CDC2700  8  DD 92 94 43 79 01 3A EE 
    88)      3419.5  Rx     1CEC0027  8  13 73 00 11 FF DA FE 00 
    89)      3420.0  Rx     1CDD0027  8  62 6D 6B BC 86 FE E3 DF 
    90)      3420.9  Rx     0CF00400  8  FF FF FF 00 00 FF FF 72 
    91)      3421.5  Rx     0CFF6600  8  00 00 FF 7D 00 00 00 FF 
    92)      3431.7  Rx     18FEF100  8  FF FF FF CC FF FF F0 FF 
    93)      3432.3  Rx     18F00500  8  FF FF FF FF 2D 2D FF FF 
    94)      3432.9  Rx     18FEF200  8  00 00 00 00 99 68 0F FF 
    95)      3433.5  Rx     18FF6D00  8  31 F1 31 FF FF FF FF FF 
    96)      3435.7  Rx     18FEF186  8  FF FF FF F3 CC FF 2F 10 
    97)      3438.6  Rx     1CDC2700  8  04 00 00 00 00 00 00 00 
    98)      3440.9  Rx     0CF00400  8  FF FF FF 00 00 FF FF 72 
    99)      3441.5  Rx     0CFF6600  8  00 00 FF 7D 00 00 00 FF 
   100)      3445.2  Rx     18FEF187  8  FF FF FF 3F FF FF 2F EF 
   101)      3460.9  Rx     0CF00400  8  FF FF FF 00 00 FF FF 72 
   102)      3461.5  Rx     0CFF6600  8  00 00 FF 7D 00 00 00 FF 
   103)      3480.9  Rx     0CF00400  8  FF FF FF 00 00 FF FF 72 
   104)      3481.5  Rx     0CFF6600  8  00 00 FF 7D 00 00 00 FF 
   105)      3499.5  Rx     10FF6527  8  FF FF FF CF FF FF FF FF 
   106)      3500.1  Rx     1CFF6A27  8  3F FC 00 F3 FF FF FF FF 
   107)      3500.9  Rx     0CF00400  8  FF FF FF 00 00 FF FF 72 
   108)      3501.5  Rx     0CFF6600  8  00 00 FF 7D 00 00 00 FF 
   109)      3520.9  Rx     0CF00400  8  FF FF FF 00 00 FF FF 72 
   110)      3521.5  Rx     0CFF6600  8  00 00 FF 7D 00 00 00 FF 
   111)      3531.6  Rx     18FEF100  8  FF FF FF CC FF FF F0 FF 
   112)      3532.2  Rx     10FF6500  8  FF FF FF FF 3F FF FF FC 
   113)      3532.8  Rx     18F00500  8  FF FF FF FF 20 4E FF FF 
   114)      3533.3  Rx     18FEF200  8  00 00 00 00 99 68 0F FF 
   115)      3533.9  Rx     18FF6D00  8  31 F1 31 FF FF FF FF FF 
   116)      3536.0  Rx     10FF6586  8  F3 FF FF F3 3F FF F0 F3 
   117)      3536.5  Rx     18FEF186  8  FF FF FF F3 CC FF 3F 00 
   118)      3540.8  Rx     0CF00400  8  FF FF FF 00 00 FF FF 72 
   119)      3541.4  Rx     0CFF6600  8  00 00 FF 7D 00 00 00 FF 
   120)      3545.2  Rx     10FF6587  8  1C 03 FF FC FF FF FF FF 
   121)      3545.8  Rx     18FEF187  8  FF FF FF 3F FF FF 3F FF 
   122)      3549.6  Rx     18FEF427  8  00 FF FF FF FF FF FF FF 
   123)      3560.9  Rx     0CF00400  8  FF FF FF 00 00 FF FF 72 
   124)      3561.5  Rx     0CFF6600  8  00 00 FF 7D 00 00 00 FF 
   125)      3580.8  Rx     0CF00400  8  FF FF FF 00 00 FF FF 72 
   126)      3581.4  Rx     0CFF6600  8  00 00 FF 7D 00 00 00 FF 
   127)      3600.9  Rx     0CF00400  8  FF FF FF 00 00 FF FF 72 
   128)      3601.5  Rx     0CFF6600  8  00 00 FF 7D 00 00 00 FF 
   129)      3620.8  Rx     0CF00400  8  FF FF FF 00 00 FF FF 72 
   130)      3621.5  Rx     0CFF6600  8  00 00 FF 7D 00 00 00 FF 
   131)      3631.7  Rx     18FEF100  8  FF FF FF CC FF FF F0 FF 
   132)      3632.2  Rx     18FEEF00  8  FF FF FF FF FF FF FF FF 
   133)      3632.8  Rx     18F00500  8  FF FF FF FF 20 4E FF FF 
   134)      3633.4  Rx     18FF2E00  8  38 BE FF FF FF FF FF FF 
   135)      3634.0  Rx     18FEF200  8  00 00 00 00 99 68 0F FF 
   136)      3634.6  Rx     18FF6D00  8  31 F1 31 FF FF FF FF FF 
   137)      3636.3  Rx     10FF6487  8  FF FF FF F0 F0 FF FF FF 
   138)      3636.8  Rx     18FEF186  8  FF FF FF F3 CC FF 4F 70 
   139)      3640.9  Rx     0CF00400  8  FF FF FF 00 00 FF FF 72 
   140)      3641.5  Rx     0CFF6600  8  00 00 FF 7D 00 00 00 FF 
   141)      3646.2  Rx     18FEF187  8  FF FF FF 3F FF FF 4F 8F 
   142)      3660.8  Rx     0CF00400  8  FF FF FF 00 00 FF FF 72 
   143)      3661.4  Rx     0CFF6600  8  00 00 FF 7D 00 00 00 FF 
   144)      3680.9  Rx     0CF00400  8  FF FF FF 00 00 FF FF 72 
   145)      3681.5  Rx     0CFF6600  8  00 00 FF 7D 00 00 00 FF 
   146)      3699.4  Rx     10FF6527  8  FF FF FF CF FF FF FF FF 
   147)      3700.8  Rx     0CF00400  8  FF FF FF 00 00 FF FF 72 
   148)      3701.5  Rx     0CFF6600  8  00 00 FF 7D 00 00 00 FF 
   149)      3720.9  Rx     0CF00400  8  FF FF FF 00 00 FF FF 72 
   150)      3721.5  Rx     0CFF6600  8  00 00 FF 7D 00 00 00 FF 
   151)      3731.5  Rx     18FEF100  8  FF FF FF CC FF FF F0 FF 
   152)      3732.1  Rx     10FF6500  8  FF FF FF FF 3F FF FF FC 
   153)      3732.7  Rx     18F00500  8  FF FF FF FF 20 4E FF FF 
   154)      3733.3  Rx     18FEF200  8  00 00 00 00 99 68 0F FF 
   155)      3733.9  Rx     18FF6D00  8  31 F1 31 FF FF FF FF FF 
   156)      3736.0  Rx     10FF6586  8  F3 FF FF F3 3F FF F0 F3 
   157)      3736.6  Rx     18FEF186  8  FF FF FF F3 CC FF 5F 60 
   158)      3740.8  Rx     0CF00400  8  FF FF FF 00 00 FF FF 72 
   159)      3741.4  Rx     0CFF6600  8  00 00 FF 7D 00 00 00 FF 
   160)      3746.3  Rx     10FF6587  8  1C 03 FF FC FF FF FF FF 
   161)      3746.8  Rx     18FEF187  8  FF FF FF 3F FF FF 5F 9F 
   162)      3760.9  Rx     0CF00400  8  FF FF FF 00 00 FF FF 72 
   163)      3761.5  Rx     0CFF6600  8  00 00 FF 7D 00 00 00 FF 
   164)      3780.8  Rx     0CF00400  8  FF FF FF 00 00 FF FF 72 
   165)      3781.4  Rx     0CFF6600  8  00 00 FF 7D 00 00 00 FF 
   166)      3800.9  Rx     0CF00400  8  FF FF FF 00 00 FF FF 72 
   167)      3801.5  Rx     0CFF6600  8  00 00 FF 7D 00 00 00 FF 
   168)      3820.8  Rx     0CF00400  8  FF FF FF 00 00 FF FF 72 
   169)      3821.4  Rx     0CFF6600  8  00 00 FF 7D 00 00 00 FF 
   170)      3829.7  Rx     18FECA27  8  00 FF 00 00 00 00 FF FF 
   171)      3831.7  Rx     18FEF100  8  FF FF FF CC FF FF F0 FF 
   172)      3832.3  Rx     18F00500  8  FF FF FF FF 20 4E FF FF 
   173)      3832.9  Rx     18FEF200  8  00 00 00 00 99 68 0F FF 
   174)      3833.5  Rx     18FF6D00  8  31 F1 31 FF FF FF FF FF 
   175)      3835.7  Rx     18FEF186  8  FF FF FF F3 CC FF 6F 50 
   176)      3840.9  Rx     0CF00400  8  FF FF FF 00 00 FF FF 72 
   177)      3841.5  Rx     0CFF6600  8  00 00 FF 7D 00 00 00 FF 
   178)      3846.2  Rx     18FEF187  8  FF FF FF 3F FF FF 6F AF 
   179)      3860.9  Rx     0CF00400  8  FF FF FF 00 00 FF FF 72 
   180)      3861.5  Rx     0CFF6600  8  00 00 FF 7D 00 00 00 FF 
   181)      3880.9  Rx     0CF00400  8  FF FF FF 00 00 FF FF 72 
   182)      3881.5  Rx     0CFF6600  8  00 00 FF 7D 00 00 00 FF 
   183)      3899.5  Rx     10FF6527  8  FF FF FF CF FF FF FF FF 
   184)      3900.8  Rx     0CF00400  8  FF FF FF 00 00 FF FF 72 
   185)      3901.4  Rx     0CFF6600  8  00 00 FF 7D 00 00 00 FF 
   186)      3920.9  Rx     0CF00400  8  FF FF FF 00 00 FF FF 72 
   187)      3921.5  Rx     0CFF6600  8  00 00 FF 7D 00 00 00 FF 
   188)      3931.6  Rx     18FEF100  8  FF FF FF CC FF FF F0 FF 
   189)      3932.1  Rx     10FF6500  8  FF FF FF FF 3F FF FF FC 
   190)      3932.7  Rx     18F00500  8  FF FF FF FF 20 4E FF FF 
   191)      3933.3  Rx     18FEF200  8  00 00 00 00 99 68 0F FF 
   192)      3933.9  Rx     18FF6D00  8  31 F1 31 FF FF FF FF FF 
   193)      3936.0  Rx     10FF6586  8  F3 FF FF F3 3F FF F0 F3 
   194)      3936.6  Rx     18FEF186  8  FF FF FF F3 CC FF 7F 40 
   195)      3940.8  Rx     0CF00400  8  FF FF FF 00 00 FF FF 72 
   196)      3941.4  Rx     0CFF6600  8  00 00 FF 7D 00 00 00 FF 
   197)      3946.3  Rx     10FF6587  8  1C 03 FF FC FF FF FF FF 
   198)      3946.9  Rx     18FEF187  8  FF FF FF 3F FF FF 7F BF 
   199)      3947.4  Rx     18EEFF0B  8  00 13 FF 00 25 C2 9C 70 
   200)      3960.9  Rx     0CF00400  8  FF FF FF 00 00 FF FF 72 
   201)      3961.5  Rx     0CFF6600  8  00 00 FF 7D 00 00 00 FF 
   202)      3980.8  Rx     0CF00400  8  FF FF FF 00 00 FF FF 72 
   203)      3981.4  Rx     0CFF6600  8  00 00 FF 7D 00 00 00 FF 
   204)      3999.5  Rx     1CFF6A27  8  3F FC 00 F3 FF FF FF FF 
   205)      4000.9  Rx     0CF00400  8  FF FF FF 00 00 FF FF 72 
   206)      4001.5  Rx     0CFF6600  8  00 00 FF 7D 00 00 00 FF 
   207)      4020.8  Rx     0CF00400  8  FF FF FF 00 00 FF FF 72 
   208)      4021.4  Rx     0CFF6600  8  00 00 FF 7D 00 00 00 FF 
   209)      4031.6  Rx     18FEF100  8  FF FF FF CC FF FF F0 FF 
   210)      4032.2  Rx     18F00500  8  FF FF FF FF 20 4E FF FF 
   211)      4032.8  Rx     18FEF200  8  00 00 00 00 99 68 0F FF 
   212)      4033.4  Rx     18FF6D00  8  31 F1 31 FF FF FF FF FF 
   213)      4040.9  Rx     0CF00400  8  FF FF FF 00 00 FF FF 72 
   214)      4041.5  Rx     0CFF6600  8  00 00 FF 7D 00 00 00 FF 
   215)      4045.6  Rx     18FEF186  8  FF FF FF F3 CC FF 8F B0 
   216)      4046.6  Rx     18FEF187  8  FF FF FF 3F FF FF 8F 4F 
   217)      4047.1  Rx     18F0010B  8  CF FF FF FF FF DC 0B FF 
   218)      4047.7  Rx     18FEBF0B  8  00 00 00 00 7D FF FF FF 
   219)      4048.3  Rx     18FEF10B  8  3F 00 00 FF FF FF FF FF 
   220)      4060.8  Rx     0CF00400  8  FF FF FF 00 00 FF FF 72 
   221)      4061.4  Rx     0CFF6600  8  00 00 FF 7D 00 00 00 FF 
   222)      4080.8  Rx     0CF00400  8  FF FF FF 00 00 FF FF 72 
   223)      4081.4  Rx     0CFF6600  8  00 00 FF 7D 00 00 00 FF 
   224)      4090.4  Rx     18FEFC00  8  FF 35 FF FF FF FF FF FF 
   225)      4091.0  Rx     0CFE4100  8  FF 0F FF FF FF FF FF FF 
   226)      4091.6  Rx     18FECA00  8  00 FF 00 00 00 00 FF FF 
   227)      4092.2  Rx     18FEF500  8  FF FF FF 90 24 FF FF FF 
   228)      4092.7  Rx     18FEF700  8  FF FF FF FF FA 00 FF FF 
   229)      4093.3  Rx     18FF2E00  8  38 BE FF FF FF FF FF FF 
   230)      4093.9  Rx     18FEC100  8  56 BE 06 00 00 00 00 00 
   231)      4099.7  Rx     10FF6527  8  FF FF FF CF FF FF FF FF 
   232)      4100.8  Rx     0CF00400  8  FF FF FF 00 00 FF FF 72 
   233)      4101.4  Rx     0CFF6600  8  00 00 FF C6 00 00 00 FF 
   234)      4109.6  Rx     18FF6E27  8  DF FF FF FF FF FF FF FF 
   235)      4110.2  Rx     18FF7127  8  F0 FF FF FF FF FF FF FF 
   236)      4110.7  Rx     0CFE4127  8  FF FF FF FF FF FF FF FF 
   237)      4120.9  Rx     0CF00400  8  FF FF FF 00 00 FF FF 72 
   238)      4121.5  Rx     0CFF6600  8  00 00 FF C6 00 00 00 FF 
   239)      4130.8  Rx     18FECA86  8  00 FF 00 00 00 00 FF FF 
   240)      4131.6  Rx     18FEF100  8  FF FF FF CC FF FF F0 FF 
   241)      4132.2  Rx     10FF6500  8  FF FF FF FF 3F FF FF FC 
   242)      4132.7  Rx     18F00500  8  FF FF FF FF 20 4E FF FF 
   243)      4133.3  Rx     18FEEF00  8  FF FF FF FF FF FF FF FF 
   244)      4133.9  Rx     18FEF200  8  00 00 00 00 99 68 0F FF 
   245)      4134.5  Rx     18FF6D00  8  31 F1 31 FF FF FF FF FF 
   246)      4136.3  Rx     10FF6586  8  F3 FF FF F3 3F FF F0 F3 
   247)      4137.4  Rx     10FF6487  8  FF FF FF F0 F0 FF FF FF 
   248)      4138.0  Rx     18FECA87  8  00 FF 00 00 00 00 FF FF 
   249)      4140.7  Rx     0CF00400  8  FF FF FF 00 00 FF FF 72 
   250)      4141.3  Rx     0CFF6600  8  00 00 FF C6 00 00 00 FF 
   251)      4145.6  Rx     18FEF186  8  FF FF FF F3 CC FF 9F A0 
   252)      4147.1  Rx     18F0010B  8  CF FF FF FF FF DC 0B FF 
   253)      4147.7  Rx     10FF6587  8  1C 03 FF FC FF FF FF FF 
   254)      4148.3  Rx     18FEBF0B  8  00 00 00 00 7D FF FF FF 
   255)      4148.8  Rx     18FEF10B  8  3F 00 00 FF FF FF FF FF 
   256)      4149.4  Rx     18FEF187  8  FF FF FF 3F FF FF 9F 5F 
   257)      4160.9  Rx     0CF00400  8  FF FF FF 00 00 FF FF 72 
   258)      4161.5  Rx     0CFF6600  8  00 00 FF C6 00 00 00 FF 
   259)      4163.5  Rx     18FF7286  8  FF FE FF FF FF FF FF FF 
   260)      4170.6  Rx     18FF7287  8  FE FF FF FF FF FF FF FF 
   261)      4180.8  Rx     0CF00400  8  FF FF FF 00 00 FF FF 72 
   262)      4181.4  Rx     0CFF6600  8  00 00 FF C6 00 00 00 FF 
   263)      4200.9  Rx     0CF00400  8  FF FF FF 00 00 FF FF 72 
   264)      4201.5  Rx     0CFF6600  8  00 00 FF C6 00 00 00 FF 
   265)      4220.8  Rx     0CF00400  8  FF FF FF 00 00 FF FF 72 
   266)      4221.4  Rx     0CFF6600  8  00 00 FF C6 00 00 00 FF 
   267)      4231.6  Rx     18FEF100  8  FF FF FF CC FF FF F0 FF 
   268)      4232.2  Rx     18F00500  8  FF FF FF FF 20 4E FF FF 
   269)      4232.8  Rx     18FEF200  8  00 00 00 00 99 68 0F FF 
   270)      4233.4  Rx     18FF6D00  8  31 F1 31 FF FF FF FF FF 
   271)      4240.8  Rx     0CF00400  8  FF FF FF 00 00 FF FF 72 
   272)      4241.4  Rx     0CFF6600  8  00 00 FF C6 00 00 00 FF 
   273)      4245.6  Rx     18FEF186  8  FF FF FF F3 CC FF AF 90 
   274)      4247.1  Rx     18F0010B  8  CF FF FF FF FF DC 0B FF 
   275)      4247.7  Rx     18EEFF17  8  3E 03 80 2A 00 13 00 00 
   276)      4248.3  Rx     18FEBF0B  8  00 00 00 00 7D FF FF FF 
   277)      4248.9  Rx     18FEF10B  8  3F 00 00 FF FF FF FF FF 
   278)      4249.4  Rx     18FEF187  8  FF FF FF 3F FF FF AF 6F 
   279)      4252.3  Rx     18EEFFA7  8  3F 03 80 2A 00 13 00 00 
   280)      4260.8  Rx     0CF00400  8  FF FF FF 00 00 FF FF 72 
   281)      4261.4  Rx     0CFF6600  8  00 00 FF C6 00 00 00 FF 
   282)      4267.2  Rx     18EAFF17  3  00 EE 00 
   283)      4268.7  Rx     18EEFF86  8  01 00 81 13 09 87 00 11 
   284)      4269.3  Rx     18EEFF87  8  01 00 82 13 09 87 00 11 
   285)      4269.8  Rx     18EEFF27  8  00 00 20 38 00 1E 00 00 
   286)      4271.6  Rx     18EA00A7  3  DA FE 00 
   287)      4272.2  Rx     18E8A700  8  03 FF FF FF FF DA FE 00 
   288)      4280.9  Rx     0CF00400  8  FF FF FF 00 00 FF FF 72 
   289)      4281.5  Rx     0CFF6600  8  00 00 FF C6 00 00 00 FF 
   290)      4287.1  Rx     18EEFF0B  8  00 13 FF 00 25 C2 9C 70 
   291)      4287.5  Rx     18EA0017  3  DA FE 00 
   292)      4288.5  Rx     18EEFF00  8  A8 55 62 06 00 00 00 00 
   293)      4299.5  Rx     10FF6527  8  FF FF FF CF FF FF FF FF 
   294)      4300.4  Rx     1CEC1700  8  10 73 00 11 11 DA FE 00 
   295)      4301.0  Rx     0CF00400  8  FF FF FF 00 00 FF FF 72 
   296)      4301.5  Rx     0CFF6600  8  00 00 FF C6 00 00 00 FF 
   297)      4307.5  Rx     1CEC0017  8  11 11 01 FF FF DA FE 00 
   298)      4310.3  Rx     1CEB1700  8  01 0A 2A 4E 32 30 54 43 
   299)      4314.3  Rx     1CEB1700  8  02 44 42 42 42 54 2A 46 
   300)      4314.9  Rx     1CDD0027  8  86 00 00 00 00 00 00 00 
   301)      4318.3  Rx     1CEB1700  8  03 30 30 48 4D 30 30 31 
   302)      4318.9  Rx     1CDC2700  8  CC 00 00 00 00 00 00 00 
   303)      4320.9  Rx     0CF00400  8  FF FF FF 00 00 FF FF 72 
   304)      4321.5  Rx     0CFF6600  8  00 00 FF C6 00 00 00 FF 
   305)      4322.3  Rx     1CEB1700  8  04 38 36 2A 30 30 30 33 
   306)      4326.3  Rx     1CEB1700  8  05 35 31 32 30 39 39 33 
   307)      4330.3  Rx     1CEB1700  8  06 34 2A 35 36 4B 54 43 
   308)      4331.5  Rx     18FEF100  8  FF FF FF CC FF FF F0 FF 
   309)      4332.1  Rx     10FF6500  8  FF FF FF FF 3F FF FF FC 
   310)      4332.7  Rx     18F00500  8  FF FF FF FF 20 4E FF FF 
   311)      4333.3  Rx     18FEF200  8  00 00 00 00 99 68 0F FF 
   312)      4333.9  Rx     18FF6D00  8  31 F1 31 FF FF FF FF FF 
   313)      4334.4  Rx     1CEB1700  8  07 44 42 42 35 4C 33 33 
   314)      4336.1  Rx     10FF6586  8  F3 FF FF F3 3F FF F0 F3 
   315)      4338.3  Rx     1CEB1700  8  08 37 37 36 32 35 2A 20 
   316)      4340.8  Rx     0CF00400  8  FF FF FF 00 00 FF FF 72 
   317)      4341.4  Rx     0CFF6600  8  00 00 FF C6 00 00 00 FF 
   318)      4342.3  Rx     1CEB1700  8  09 20 20 34 30 31 34 31 
   319)      4345.6  Rx     18FEF186  8  FF FF FF F3 CC FF BF 80 
   320)      4346.3  Rx     1CEB1700  8  0A 32 35 2A 4E 41 5F 44 
   321)      4347.1  Rx     18F0010B  8  CF FF FF FF FF DC 0B FF 
   322)      4347.7  Rx     18FEBF0B  8  00 00 00 00 7D FF FF FF 
   323)      4348.3  Rx     18FEF10B  8  3F 00 00 FF FF FF FF FF 
   324)      4350.3  Rx     1CEB1700  8  0B 45 56 00 00 2A 56 4D 
   325)      4350.9  Rx     10FF6587  8  1C 03 FF FC FF FF FF FF 
   326)      4351.5  Rx     18FEF187  8  FF FF FF 3F FF FF BF 7F 
   327)      4354.3  Rx     1CEB1700  8  0C 42 38 46 30 41 41 45 
   328)      4358.3  Rx     1CEB1700  8  0D 32 2A 4D 59 32 30 2D 
   329)      4360.9  Rx     0CF00400  8  FF FF FF 00 00 FF FF 72 
   330)      4361.4  Rx     0CFF6600  8  00 00 FF C6 00 00 00 FF 
   331)      4362.3  Rx     1CEB1700  8  0E 44 65 76 00 00 2A 34 
   332)      4366.3  Rx     1CEB1700  8  0F 30 31 38 37 31 31 00 
   333)      4370.3  Rx     1CEB1700  8  10 2A 42 30 44 36 32 34 
   334)      4374.3  Rx     1CEB1700  8  11 35 36 2A FF FF FF FF 
   335)      4380.8  Rx     0CF00400  8  FF FF FF 00 00 FF FF 72 
   336)      4381.4  Rx     0CFF6600  8  00 00 FF C6 00 00 00 FF 
   337)      4387.5  Rx     1CEC0017  8  13 77 00 11 FF DA FE 00 
   338)      4390.3  Rx     1CEC1700  8  FF FE FF FF FF DA FE 00 
   339)      4400.8  Rx     0CF00400  8  FF FF FF 00 00 FF FF 72 
   340)      4401.4  Rx     0CFF6600  8  00 00 FF C6 00 00 00 FF 
   341)      4420.8  Rx     0CF00400  8  FF FF FF 00 00 FF FF 72 
   342)      4421.4  Rx     0CFF6600  8  00 00 FF C6 00 00 00 FF 
   343)      4431.6  Rx     18FEF100  8  FF FF FF CC FF FF F0 FF 
   344)      4432.2  Rx     18F00500  8  FF FF FF FF 20 4E FF FF 
   345)      4432.8  Rx     18FEF200  8  00 00 00 00 99 68 0F FF 
   346)      4433.4  Rx     18FF6D00  8  31 F1 31 FF FF FF FF FF 
   347)      4440.8  Rx     0CF00400  8  FF FF FF 00 00 FF FF 72 
   348)      4441.4  Rx     0CFF6600  8  00 00 FF C6 00 00 00 FF 
   349)      4445.6  Rx     18FEF186  8  FF FF FF F3 CC FF CF F0 
   350)      4447.2  Rx     18F0010B  8  CF FF FF FF FF DC 0B FF 
   351)      4447.7  Rx     18FEBF0B  8  00 00 00 00 7D FF FF FF 
   352)      4448.3  Rx     18FEF10B  8  3F 00 00 FF FF FF FF FF 
   353)      4450.5  Rx     18FEF187  8  FF FF FF 3F FF FF CF 0F 
   354)      4460.8  Rx     0CF00400  8  FF FF FF 00 00 FF FF 72 
   355)      4461.4  Rx     0CFF6600  8  00 00 FF C6 00 00 00 FF 
   356)      4480.8  Rx     0CF00400  8  FF FF FF 00 00 FF FF 72 
   357)      4481.4  Rx     0CFF6600  8  00 00 FF C6 00 00 00 FF 
   358)      4499.4  Rx     10FF6527  8  FF FF FF CF FF FF FF FF 
   359)      4500.0  Rx     1CFF6A27  8  3F FC 00 F3 FF FF FF FF 
   360)      4500.8  Rx     0CF00400  8  FF FF FF 00 00 FF FF 72 
   361)      4501.4  Rx     0CFF6600  8  00 00 FF C6 00 00 00 FF 
   362)      4520.8  Rx     0CF00400  8  FF FF FF 00 00 FF FF 72 
   363)      4521.4  Rx     0CFF6600  8  00 00 FF C6 00 00 00 FF 
   364)      4531.5  Rx     18FEF100  8  FF FF FF CC FF FF F0 FF 
   365)      4532.1  Rx     10FF6500  8  FF FF FF FF 3F FF FF FC 
   366)      4532.7  Rx     18F00500  8  FF FF FF FF 20 4E FF FF 
   367)      4533.3  Rx     18FEF200  8  00 00 00 00 99 68 0F FF 
   368)      4533.9  Rx     18FF6D00  8  31 F1 31 FF FF FF FF FF 
   369)      4536.0  Rx     10FF6586  8  F3 FF FF F3 3F FF F0 F3 
   370)      4540.7  Rx     0CF00400  8  FF FF FF 00 00 FF FF 72 
   371)      4541.3  Rx     0CFF6600  8  00 00 FF C6 00 00 00 FF 
   372)      4545.6  Rx     18FEF186  8  FF FF FF F3 CC FF DF E0 
   373)      4547.2  Rx     18F0010B  8  CF FF FF FF FF DC 0B FF 
   374)      4547.8  Rx     18FEBF0B  8  00 00 00 00 7D FF FF FF 
   375)      4548.3  Rx     18FEF10B  8  3F 00 00 FF FF FF FF FF 
   376)      4550.5  Rx     10FF6587  8  1C 03 FF FC FF FF FF FF 
   377)      4551.1  Rx     18FEF187  8  FF FF FF 3F FF FF DF 1F 
   378)      4560.8  Rx     0CF00400  8  FF FF FF 00 00 FF FF 72 
   379)      4561.4  Rx     0CFF6600  8  00 00 FF C6 00 00 00 FF 
   380)      4580.8  Rx     0CF00400  8  FF FF FF 00 00 FF FF 72 
   381)      4581.3  Rx     0CFF6600  8  00 00 FF C6 00 00 00 FF 
   382)      4600.8  Rx     0CF00400  8  FF FF FF 00 00 FF FF 72 
   383)      4601.4  Rx     0CFF6600  8  00 00 FF C6 00 00 00 FF 
   384)      4620.7  Rx     0CF00400  8  FF FF FF 00 00 FF FF 72 
   385)      4621.3  Rx     0CFF6600  8  00 00 FF C6 00 00 00 FF 
   386)      4631.6  Rx     18FEF100  8  FF FF FF CC FF FF F0 FF 
   387)      4632.2  Rx     18FEEF00  8  FF FF FF FF FF FF FF FF 
   388)      4632.8  Rx     18F00500  8  FF FF FF FF 20 4E FF FF 
   389)      4633.4  Rx     18FEF200  8  00 00 00 00 99 68 0F FF 
   390)      4633.9  Rx     18FF6D00  8  31 F1 31 FF FF FF FF FF 
   391)      4640.2  Rx     10FF6487  8  FF FF FF F0 F0 FF FF FF 
   392)      4640.8  Rx     0CF00400  8  FF FF FF 00 00 FF FF 72 
   393)      4641.4  Rx     0CFF6600  8  00 00 FF C6 00 00 00 FF 
   394)      4645.6  Rx     18FEF186  8  FF FF FF F3 CC FF EF D0 
   395)      4647.2  Rx     18F0010B  8  CF FF FF FF FF DC 0B FF 
   396)      4647.8  Rx     18FEBF0B  8  00 00 00 00 7D FF FF FF 
   397)      4648.4  Rx     18FEF10B  8  3F 00 00 FF FF FF FF FF 
   398)      4650.6  Rx     18FEF187  8  FF FF FF 3F FF FF EF 2F 
   399)      4660.8  Rx     0CF00400  8  FF FF FF 00 00 FF FF 72 
   400)      4661.3  Rx     0CFF6600  8  00 00 FF C6 00 00 00 FF 
   401)      4680.8  Rx     0CF00400  8  FF FF FF 00 00 FF FF 72 
   402)      4681.4  Rx     0CFF6600  8  00 00 FF C6 00 00 00 FF 
   403)      4699.4  Rx     10FF6527  8  FF FF FF CF FF FF FF FF 
   404)      4700.7  Rx     0CF00400  8  FF FF FF 00 00 FF FF 72 
   405)      4701.3  Rx     0CFF6600  8  00 00 FF C6 00 00 00 FF 
   406)      4720.8  Rx     0CF00400  8  FF FF FF 00 00 FF FF 72 
   407)      4721.4  Rx     0CFF6600  8  00 00 FF C6 00 00 00 FF 
   408)      4731.5  Rx     18FEF100  8  FF FF FF CC FF FF F0 FF 
   409)      4732.1  Rx     10FF6500  8  FF FF FF FF 3F FF FF FC 
   410)      4732.6  Rx     18F00500  8  FF FF FF FF 20 4E FF FF 
   411)      4733.2  Rx     18FEF200  8  00 00 00 00 99 68 0F FF 
   412)      4733.8  Rx     18FF6D00  8  31 F1 31 FF FF FF FF FF 
   413)      4735.9  Rx     10FF6586  8  F3 FF FF F3 3F FF F0 F3 
   414)      4740.7  Rx     0CF00400  8  FF FF FF 00 00 FF FF 72 
   415)      4741.3  Rx     0CFF6600  8  00 00 FF C6 00 00 00 FF 
   416)      4745.6  Rx     18FEF186  8  FF FF FF F3 CC FF FF C0 
   417)      4747.2  Rx     18F0010B  8  CF FF FF FF FF DC 0B FF 
   418)      4747.8  Rx     18FEBF0B  8  00 00 00 00 7D FF FF FF 
   419)      4748.4  Rx     18FEF10B  8  3F 00 00 FF FF FF FF FF 
   420)      4749.0  Rx     18FF7117  8  00 FF FF FF FF FF FF FF 
   421)      4750.9  Rx     10FF6587  8  1C 03 FF FC FF FF FF FF 
   422)      4751.5  Rx     18FEF187  8  FF FF FF 3F FF FF FF 3F 
   423)      4752.3  Rx     18FF71A7  8  00 FF FF FF FF FF FF FF 
   424)      4760.8  Rx     0CF00400  8  FF FF FF 00 00 FF FF 72 
   425)      4761.4  Rx     0CFF6600  8  00 00 FF C6 00 00 00 FF 
   426)      4767.5  Rx     18FEF517  8  FF FF FF FF FF FF FF FF 
   427)      4771.7  Rx     18EA00A7  3  6B FF 00 
   428)      4780.7  Rx     0CF00400  8  FF FF FF 00 00 FF FF 72 
   429)      4781.3  Rx     0CFF6600  8  00 00 FF C6 00 00 00 FF 
   430)      4787.3  Rx     18EA0017  3  6B FF 00 
   431)      4800.8  Rx     0CF00400  8  FF FF FF 00 00 FF FF 72 
   432)      4801.4  Rx     0CFF6600  8  00 00 FF C6 00 00 00 FF 
   433)      4808.4  Rx     1CFF6B00  8  FF FF FF 2C 20 FF F0 F1 
   434)      4818.4  Rx     1CFF6B00  8  FF FF FF 2C 20 FF F0 F1 
   435)      4820.7  Rx     0CF00400  8  FF FF FF 00 00 FF FF 72 
   436)      4821.3  Rx     0CFF6600  8  00 00 FF C6 00 00 00 FF 
   437)      4829.7  Rx     18FECA27  8  00 FF 00 00 00 00 FF FF 
   438)      4831.6  Rx     18FEF100  8  FF FF FF CC FF FF F0 FF 
   439)      4832.2  Rx     18F00500  8  FF FF FF FF 20 4E FF FF 
   440)      4832.8  Rx     18FEF200  8  00 00 00 00 99 68 0F FF 
   441)      4833.4  Rx     18FF6D00  8  31 F1 31 FF FF FF FF FF 
   442)      4840.8  Rx     0CF00400  8  FF FF FF 00 00 FF FF 72 
   443)      4841.4  Rx     0CFF6600  8  00 00 FF C6 00 00 00 FF 
   444)      4845.6  Rx     18FEF186  8  FF FF FF F3 CC FF 0F 30 
   445)      4847.2  Rx     18F0010B  8  CF FF FF FF FF DC 0B FF 
   446)      4847.8  Rx     18FEBF0B  8  00 00 00 00 7D FF FF FF 
   447)      4848.4  Rx     18FEF10B  8  3F 00 00 FF FF FF FF FF 
   448)      4851.2  Rx     18FEF187  8  FF FF FF 3F FF FF 0F CF 
   449)      4860.7  Rx     0CF00400  8  FF FF FF 00 00 FF FF 72 
   450)      4861.3  Rx     0CFF6600  8  00 00 FF C6 00 00 00 FF 
   451)      4880.8  Rx     0CF00400  8  FF FF FF 00 00 FF FF 72 
   452)      4881.4  Rx     0CFF6600  8  00 00 FF C6 00 00 00 FF 
   453)      4899.4  Rx     10FF6527  8  FF FF FF CF FF FF FF FF 
   454)      4900.7  Rx     0CF00400  8  FF FF FF 00 00 FF FF 72 
   455)      4901.3  Rx     0CFF6600  8  00 00 FF C6 00 00 00 FF 
   456)      4920.8  Rx     0CF00400  8  FF FF FF 00 00 FF FF 72 
   457)      4921.4  Rx     0CFF6600  8  00 00 FF C6 00 00 00 FF 
   458)      4931.5  Rx     18FEF100  8  FF FF FF CC FF FF F0 FF 
   459)      4932.1  Rx     10FF6500  8  FF FF FF FF 3F FF FF FC 
   460)      4932.6  Rx     18F00500  8  FF FF FF FF 20 4E FF FF 
   461)      4933.2  Rx     18FEF200  8  00 00 00 00 99 68 0F FF 
   462)      4933.8  Rx     18FF6D00  8  31 F1 31 FF FF FF FF FF 
   463)      4936.0  Rx     10FF6586  8  F3 FF FF F3 3F FF F0 F3 
   464)      4940.7  Rx     0CF00400  8  FF FF FF 00 00 FF FF 72 
   465)      4941.3  Rx     0CFF6600  8  00 00 FF C6 00 00 00 FF 
   466)      4945.6  Rx     18FEF186  8  FF FF FF F3 CC FF 1F 20 
   467)      4947.3  Rx     18F0010B  8  CF FF FF FF FF DC 0B FF 
   468)      4947.9  Rx     18FEBF0B  8  00 00 00 00 7D FF FF FF 
   469)      4948.4  Rx     18FECA0B  8  04 FF 00 00 00 00 FF FF 
   470)      4949.0  Rx     18FEF10B  8  3F 00 00 FF FF FF FF FF 
   471)      4951.5  Rx     10FF6587  8  1C 03 FF FC FF FF FF FF 
   472)      4952.1  Rx     18FEF187  8  FF FF FF 3F FF FF 1F DF 
   473)      4960.8  Rx     0CF00400  8  FF FF FF 00 00 FF FF 72 
   474)      4961.4  Rx     0CFF6600  8  00 00 FF C6 00 00 00 FF 
   475)      4980.7  Rx     0CF00400  8  FF FF FF 00 00 FF FF 72 
   476)      4981.3  Rx     0CFF6600  8  00 00 FF C6 00 00 00 FF 
   477)      4999.4  Rx     1CFF6A27  8  3F FC 00 F3 FF FF FF FF 
   478)      5000.8  Rx     0CF00400  8  FF FF FF 00 00 FF FF 72 
   479)      5001.4  Rx     0CFF6600  8  00 00 FF C6 00 00 00 FF 
   480)      5020.7  Rx     0CF00400  8  FF FF FF 00 00 FF FF 72 
   481)      5021.3  Rx     0CFF6600  8  00 00 FF C6 00 00 00 FF 
   482)      5031.6  Rx     18FEF100  8  FF FF FF CC FF FF F0 FF 
   483)      5032.2  Rx     18F00500  8  FF FF FF FF 20 4E FF FF 
   484)      5032.8  Rx     18FEF200  8  00 00 00 00 99 68 0F FF 
   485)      5033.4  Rx     18FF6D00  8  31 F1 31 FF FF FF FF FF 
   486)      5040.8  Rx     0CF00400  8  FF FF FF 00 00 FF FF 72 
   487)      5041.4  Rx     0CFF6600  8  00 00 FF C6 00 00 00 FF 
   488)      5045.6  Rx     18FEF186  8  FF FF FF F3 CC FF 2F 10 
   489)      5047.3  Rx     18F0010B  8  CF FF FF FF FF DC 0B FF 
   490)      5047.9  Rx     18FEBF0B  8  00 00 00 00 7D FF FF FF 
   491)      5048.5  Rx     18FEF10B  8  3F 00 00 FF FF FF FF FF 
   492)      5051.2  Rx     18FEF187  8  FF FF FF 3F FF FF 2F EF 
   493)      5060.7  Rx     0CF00400  8  FF FF FF 00 00 FF FF 72 
   494)      5061.3  Rx     0CFF6600  8  00 00 FF C6 00 00 00 FF 
   495)      5080.8  Rx     0CF00400  8  FF FF FF 00 00 FF FF 72 
   496)      5081.4  Rx     0CFF6600  8  00 00 FF C6 00 00 00 FF 
   497)      5090.4  Rx     18FEFC00  8  FF 33 FF FF FF FF FF FF 
   498)      5090.9  Rx     0CFE4100  8  FF 0F FF FF FF FF FF FF 
   499)      5091.5  Rx     18FECA00  8  00 FF 00 00 00 00 FF FF 
   500)      5092.1  Rx     18FEF500  8  FF FF FF 90 24 FF FF FF 
   501)      5092.7  Rx     18FEF700  8  FF FF FF FF FA 00 FF FF 
   502)      5093.3  Rx     18FF2E00  8  38 BE FF FF FF FF FF FF 
   503)      5093.9  Rx     18FEC100  8  56 BE 06 00 00 00 00 00 
   504)      5099.6  Rx     10FF6527  8  FF FF FF CF FF FF FF FF 
   505)      5100.7  Rx     0CF00400  8  FF FF FF 00 00 FF FF 72 
   506)      5101.3  Rx     0CFF6600  8  00 00 FF C4 00 00 00 FF 
   507)      5109.5  Rx     18FF6E27  8  DF FF FF FF FF FF FF FF 
   508)      5110.1  Rx     18FF7127  8  F0 FF FF FF FF FF FF FF 
   509)      5110.7  Rx     0CFE4127  8  FF FF FF FF FF FF FF FF 
   510)      5120.7  Rx     0CF00400  8  FF FF FF 00 00 FF FF 72 
   511)      5121.3  Rx     0CFF6600  8  00 00 FF C4 00 00 00 FF 
   512)      5131.5  Rx     18FEF100  8  FF FF FF CC FF FF F0 FF 
   513)      5132.1  Rx     10FF6500  8  FF FF FF FF 3F FF FF FC 
   514)      5132.6  Rx     18F00500  8  FF FF FF FF 20 4E FF FF 
   515)      5133.2  Rx     18FECA86  8  00 FF 00 00 00 00 FF FF 
   516)      5133.8  Rx     18FEEF00  8  FF FF FF FF FF FF FF FF 
   517)      5134.4  Rx     18FEF200  8  00 00 00 00 99 68 0F FF 
   518)      5135.0  Rx     18FF6D00  8  31 F1 31 FF FF FF FF FF 
   519)      5136.5  Rx     10FF6586  8  F3 FF FF F3 3F FF F0 F3 
   520)      5137.5  Rx     18FECA87  8  00 FF 00 00 00 00 FF FF 
   521)      5140.7  Rx     0CF00400  8  FF FF FF 00 00 FF FF 72 
   522)      5141.3  Rx     0CFF6600  8  00 00 FF C4 00 00 00 FF 
   523)      5143.0  Rx     10FF6487  8  FF FF FF F0 F0 FF FF FF 
   524)      5145.6  Rx     18FEF186  8  FF FF FF F3 CC FF 3F 00 
   525)      5147.3  Rx     18F0010B  8  CF FF FF FF FF DC 0B FF 
   526)      5147.9  Rx     18FEBF0B  8  00 00 00 00 7D FF FF FF 
   527)      5148.5  Rx     18FEF10B  8  3F 00 00 FF FF FF FF FF 
   528)      5153.2  Rx     10FF6587  8  1C 03 FF FC FF FF FF FF 
   529)      5153.8  Rx     18FEF187  8  FF FF FF 3F FF FF 3F FF 
   530)      5160.8  Rx     0CF00400  8  FF FF FF 00 00 FF FF 72 
   531)      5161.4  Rx     0CFF6600  8  00 00 FF C4 00 00 00 FF 
   532)      5168.2  Rx     18FF7286  8  FF FE FF FF FF FF FF FF 
   533)      5175.6  Rx     18FF7287  8  FE FF FF FF FF FF FF FF 
   534)      5180.7  Rx     0CF00400  8  FF FF FF 00 00 FF FF 72 
   535)      5181.3  Rx     0CFF6600  8  00 00 FF C4 00 00 00 FF 
   536)      5200.7  Rx     0CF00400  8  FF FF FF 00 00 FF FF 72 
   537)      5201.3  Rx     0CFF6600  8  00 00 FF C4 00 00 00 FF 
   538)      5220.7  Rx     0CF00400  8  FF FF FF 00 00 FF FF 72 
   539)      5221.3  Rx     0CFF6600  8  00 00 FF C4 00 00 00 FF 
   540)      5231.5  Rx     18FEF100  8  FF FF FF CC FF FF F0 FF 
   541)      5232.1  Rx     18F00500  8  FF FF FF FF 20 4E FF FF 
   542)      5232.7  Rx     18FEF200  8  00 00 00 00 99 68 10 FF 
   543)      5233.3  Rx     18FF6D00  8  31 F1 31 FF FF FF FF FF 
   544)      5240.8  Rx     0CF00400  8  FF FF FF 00 00 FF FF 72 
   545)      5241.3  Rx     0CFF6600  8  00 00 FF C4 00 00 00 FF 
   546)      5245.5  Rx     18FEF186  8  FF FF FF F3 CC FF 4F 70 
   547)      5247.4  Rx     18F0010B  8  CF FF FF FF FF DC 0B FF 
   548)      5247.9  Rx     18FEBF0B  8  00 00 00 00 7D FF FF FF 
   549)      5248.5  Rx     18FEF10B  8  3F 00 00 FF FF FF FF FF 
   550)      5254.2  Rx     18FEF187  8  FF FF FF 3F FF FF 4F 8F 
   551)      5260.7  Rx     0CF00400  8  FF FF FF 00 00 FF FF 72 
   552)      5261.3  Rx     0CFF6600  8  00 00 FF C4 00 00 00 FF 
   553)      5271.6  Rx     18EA00A7  3  DA FE 00 
   554)      5280.7  Rx     0CF00400  8  FF FF FF 00 00 FF FF 72 
   555)      5281.3  Rx     0CFF6600  8  00 00 FF C4 00 00 00 FF 
   556)      5290.2  Rx     1CECA700  8  10 73 00 11 11 DA FE 00 
   557)      5291.8  Rx     1CEC00A7  8  11 11 01 FF FF DA FE 00 
   558)      5299.4  Rx     10FF6527  8  FF FF FF CF FF FF FF FF 
   559)      5300.2  Rx     1CEBA700  8  01 0A 2A 4E 32 30 54 43 
   560)      5300.8  Rx     0CF00400  8  FF FF FF 00 00 FF FF 72 
   561)      5301.4  Rx     0CFF6600  8  00 00 FF C4 00 00 00 FF 
   562)      5304.2  Rx     1CEBA700  8  02 44 42 42 42 54 2A 46 
   563)      5308.3  Rx     1CEBA700  8  03 30 30 48 4D 30 30 31 
   564)      5312.2  Rx     1CEBA700  8  04 38 36 2A 30 30 30 33 
   565)      5316.3  Rx     1CEBA700  8  05 35 31 32 30 39 39 33 
   566)      5320.3  Rx     1CEBA700  8  06 34 2A 35 36 4B 54 43 
   567)      5320.8  Rx     0CF00400  8  FF FF FF 00 00 FF FF 72 
   568)      5321.4  Rx     0CFF6600  8  00 00 FF C4 00 00 00 FF 
   569)      5324.2  Rx     1CEBA700  8  07 44 42 42 35 4C 33 33 
   570)      5328.2  Rx     1CEBA700  8  08 37 37 36 32 35 2A 20 
   571)      5331.6  Rx     18FEF100  8  FF FF FF CC FF FF F0 FF 
   572)      5332.2  Rx     10FF6500  8  FF FF FF FF 3F FF FF FC 
   573)      5332.7  Rx     18F00500  8  FF FF FF FF 20 4E FF FF 
   574)      5333.3  Rx     1CEBA700  8  09 20 20 34 30 31 34 31 
   575)      5333.9  Rx     18FEF200  8  00 00 00 00 99 68 0F FF 
   576)      5334.5  Rx     18FF6D00  8  31 F1 31 FF FF FF FF FF 
   577)      5336.2  Rx     10FF6586  8  F3 FF FF F3 3F FF F0 F3 
   578)      5336.7  Rx     1CEBA700  8  0A 32 35 2A 4E 41 5F 44 
   579)      5340.3  Rx     1CEBA700  8  0B 45 56 00 00 2A 56 4D 
   580)      5340.8  Rx     0CF00400  8  FF FF FF 00 00 FF FF 72 
   581)      5341.4  Rx     0CFF6600  8  00 00 FF C4 00 00 00 FF 
   582)      5344.2  Rx     1CEBA700  8  0C 42 38 46 30 41 41 45 
   583)      5345.8  Rx     18FEF186  8  FF FF FF F3 CC FF 5F 60 
   584)      5347.4  Rx     18F0010B  8  CF FF FF FF FF DC 0B FF 
   585)      5348.0  Rx     18FEBF0B  8  00 00 00 00 7D FF FF FF 
   586)      5348.6  Rx     18FEF10B  8  3F 00 00 FF FF FF FF FF 
   587)      5349.1  Rx     1CEBA700  8  0D 32 2A 4D 59 32 30 2D 
   588)      5352.3  Rx     1CEBA700  8  0E 44 65 76 00 00 2A 34 
   589)      5355.3  Rx     10FF6587  8  1C 03 FF FC FF FF FF FF 
   590)      5355.9  Rx     18FEF187  8  FF FF FF 3F FF FF 5F 9F 
   591)      5356.4  Rx     1CEBA700  8  0F 30 31 38 37 31 31 00 
   592)      5360.2  Rx     1CEBA700  8  10 2A 42 30 44 36 32 34 
   593)      5360.8  Rx     0CF00400  8  FF FF FF 00 00 FF FF 72 
   594)      5361.4  Rx     0CFF6600  8  00 00 FF C4 00 00 00 FF 
   595)      5364.3  Rx     1CEBA700  8  11 35 36 2A FF FF FF FF 
   596)      5371.8  Rx     1CEC00A7  8  13 77 00 11 FF DA FE 00 
   597)      5380.3  Rx     1CECA700  8  FF FE FF FF FF DA FE 00 
   598)      5380.9  Rx     0CF00400  8  FF FF FF 00 00 FF FF 72 
   599)      5381.5  Rx     0CFF6600  8  00 00 FF C4 00 00 00 FF 
   600)      5400.8  Rx     0CF00400  8  FF FF FF 00 00 FF FF 72 
   601)      5401.4  Rx     0CFF6600  8  00 00 FF C4 00 00 00 FF 
   602)      5420.7  Rx     0CF00400  8  FF FF FF 00 00 FF FF 72 
   603)      5421.3  Rx     0CFF6600  8  00 00 FF C4 00 00 00 FF 
   604)      5431.5  Rx     18FEF100  8  FF FF FF CC FF FF F0 FF 
   605)      5432.1  Rx     18F00500  8  FF FF FF FF 20 4E FF FF 
   606)      5432.7  Rx     18FEF200  8  00 00 00 00 99 68 0F FF 
   607)      5433.3  Rx     18FF6D00  8  31 F1 31 FF FF FF FF FF 
   608)      5440.8  Rx     0CF00400  8  FF FF FF 00 00 FF FF 72 
   609)      5441.4  Rx     0CFF6600  8  00 00 FF C4 00 00 00 FF 
   610)      5447.5  Rx     18F0010B  8  CF FF FF FF FF DC 0B FF 
   611)      5448.0  Rx     18FEBF0B  8  00 00 00 00 7D FF FF FF 
   612)      5448.6  Rx     18FEF10B  8  3F 00 00 FF FF FF FF FF 
   613)      5455.2  Rx     18FEF187  8  FF FF FF 3F FF FF 6F AF 
   614)      5455.8  Rx     18FEF186  8  FF FF FF F3 CC FF 6F 50 
   615)      5460.7  Rx     0CF00400  8  FF FF FF 00 00 FF FF 72 
   616)      5461.3  Rx     0CFF6600  8  00 00 FF C4 00 00 00 FF 
   617)      5480.8  Rx     0CF00400  8  FF FF FF 00 00 FF FF 72 
   618)      5481.4  Rx     0CFF6600  8  00 00 FF C4 00 00 00 FF 
   619)      5499.4  Rx     10FF6527  8  FF FF FF CF FF FF FF FF 
   620)      5500.0  Rx     1CFF6A27  8  3F FC 00 F3 FF FF FF FF 
   621)      5500.7  Rx     0CF00400  8  FF FF FF 00 00 FF FF 72 
   622)      5501.3  Rx     0CFF6600  8  00 00 FF C4 00 00 00 FF 
   623)      5520.8  Rx     0CF00400  8  FF FF FF 00 00 FF FF 72 
   624)      5521.4  Rx     0CFF6600  8  00 00 FF C4 00 00 00 FF 
   625)      5531.5  Rx     18FEF100  8  FF FF FF CC FF FF F0 FF 
   626)      5532.1  Rx     10FF6500  8  FF FF FF FF 3F FF FF FC 
   627)      5532.6  Rx     18F00500  8  FF FF FF FF 20 4E FF FF 
   628)      5533.2  Rx     18FEF200  8  00 00 00 00 99 68 0F FF 
   629)      5533.8  Rx     18FF6D00  8  31 F1 31 FF FF FF FF FF 
   630)      5535.9  Rx     10FF6586  8  F3 FF FF F3 3F FF F0 F3 
   631)      5540.7  Rx     0CF00400  8  FF FF FF 00 00 FF FF 72 
   632)      5541.3  Rx     0CFF6600  8  00 00 FF C4 00 00 00 FF 
   633)      5547.5  Rx     18F0010B  8  CF FF FF FF FF DC 0B FF 
   634)      5548.1  Rx     18FEBF0B  8  00 00 00 00 7D FF FF FF 
   635)      5548.6  Rx     18FEF10B  8  3F 00 00 FF FF FF FF FF 
   636)      5555.2  Rx     10FF6587  8  1C 03 FF FC FF FF FF FF 
   637)      5555.8  Rx     18FEF186  8  FF FF FF F3 CC FF 7F 40 
   638)      5556.3  Rx     18FEF187  8  FF FF FF 3F FF FF 7F BF 
   639)      5560.8  Rx     0CF00400  8  FF FF FF 00 00 FF FF 72 
   640)      5561.4  Rx     0CFF6600  8  00 00 FF C4 00 00 00 FF 
   641)      5580.7  Rx     0CF00400  8  FF FF FF 00 00 FF FF 72 
   642)      5581.3  Rx     0CFF6600  8  00 00 FF C4 00 00 00 FF 
   643)      5600.8  Rx     0CF00400  8  FF FF FF 00 00 FF FF 72 
   644)      5601.4  Rx     0CFF6600  8  00 00 FF C4 00 00 00 FF 
   645)      5620.7  Rx     0CF00400  8  FF FF FF 00 00 FF FF 72 
   646)      5621.3  Rx     0CFF6600  8  00 00 FF C4 00 00 00 FF 
   647)      5631.5  Rx     18FEF100  8  FF FF FF CC FF FF F0 FF 
   648)      5632.1  Rx     18FEEF00  8  FF FF FF FF FF FF FF FF 
   649)      5632.7  Rx     18F00500  8  FF FF FF FF 20 4E FF FF 
   650)      5633.3  Rx     18FEF200  8  00 00 00 00 99 68 0F FF 
   651)      5633.9  Rx     18FF6D00  8  31 F1 31 FF FF FF FF FF 
   652)      5640.7  Rx     0CF00400  8  FF FF FF 00 00 FF FF 72 
   653)      5641.3  Rx     0CFF6600  8  00 00 FF C4 00 00 00 FF 
   654)      5645.2  Rx     10FF6487  8  FF FF FF F0 F0 FF FF FF 
   655)      5647.5  Rx     18F0010B  8  CF FF FF FF FF DC 0B FF 
   656)      5648.1  Rx     18FEBF0B  8  00 00 00 00 7D FF FF FF 
   657)      5648.7  Rx     18FEF10B  8  3F 00 00 FF FF FF FF FF 
   658)      5655.2  Rx     18FEF187  8  FF FF FF 3F FF FF 8F 4F 
   659)      5655.8  Rx     18FEF186  8  FF FF FF F3 CC FF 8F B0 
   660)      5660.7  Rx     0CF00400  8  FF FF FF 00 00 FF FF 72 
   661)      5661.3  Rx     0CFF6600  8  00 00 FF C4 00 00 00 FF 
   662)      5680.8  Rx     0CF00400  8  FF FF FF 00 00 FF FF 72 
   663)      5681.4  Rx     0CFF6600  8  00 00 FF C4 00 00 00 FF 
   664)      5699.4  Rx     10FF6527  8  FF FF FF CF FF FF FF FF 
   665)      5700.7  Rx     0CF00400  8  FF FF FF 00 00 FF FF 72 
   666)      5701.3  Rx     0CFF6600  8  00 00 FF C4 00 00 00 FF 
   667)      5720.7  Rx     0CF00400  8  FF FF FF 00 00 FF FF 72 
   668)      5721.3  Rx     0CFF6600  8  00 00 FF C4 00 00 00 FF 
   669)      5731.4  Rx     18FEF100  8  FF FF FF CC FF FF F0 FF 
   670)      5732.0  Rx     10FF6500  8  FF FF FF FF 3F FF FF FC 
   671)      5732.6  Rx     18F00500  8  FF FF FF FF 20 4E FF FF 
   672)      5733.2  Rx     18FEF200  8  00 00 00 00 99 68 0F FF 
   673)      5733.8  Rx     18FF6D00  8  31 F1 31 FF FF FF FF FF 
   674)      5735.9  Rx     10FF6586  8  F3 FF FF F3 3F FF F0 F3 
   675)      5740.7  Rx     0CF00400  8  FF FF FF 00 00 FF FF 72 
   676)      5741.3  Rx     0CFF6600  8  00 00 FF C4 00 00 00 FF 
   677)      5747.4  Rx     18FF7117  8  00 FF FF FF FF FF FF FF 
   678)      5748.0  Rx     18F0010B  8  CF FF FF FF FF DC 0B FF 
   679)      5748.6  Rx     18FEBF0B  8  00 00 00 00 7D FF FF FF 
   680)      5749.2  Rx     18FEF10B  8  3F 00 00 FF FF FF FF FF 
   681)      5752.0  Rx     18FF71A7  8  00 FF FF FF FF FF FF FF 
   682)      5755.2  Rx     10FF6587  8  1C 03 FF FC FF FF FF FF 
   683)      5755.8  Rx     18FEF186  8  FF FF FF F3 CC FF 9F A0 
   684)      5756.4  Rx     18FEF187  8  FF FF FF 3F FF FF 9F 5F 
   685)      5760.8  Rx     0CF00400  8  FF FF FF 00 00 FF FF 72 
   686)      5761.4  Rx     0CFF6600  8  00 00 FF C4 00 00 00 FF 
   687)      5767.5  Rx     18FEF517  8  FF FF FF FF FF FF FF FF 
   688)      5780.7  Rx     0CF00400  8  FF FF FF 00 00 FF FF 72 
   689)      5781.3  Rx     0CFF6600  8  00 00 FF C4 00 00 00 FF 
   690)      5800.7  Rx     0CF00400  8  FF FF FF 00 00 FF FF 72 
   691)      5801.3  Rx     0CFF6600  8  00 00 FF C4 00 00 00 FF 
   692)      5820.7  Rx     0CF00400  8  FF FF FF 00 00 FF FF 72 
   693)      5821.3  Rx     0CFF6600  8  00 00 FF C4 00 00 00 FF 
   694)      5829.7  Rx     18FECA27  8  00 FF 00 00 00 00 FF FF 
   695)      5831.6  Rx     18FEF100  8  FF FF FF CC FF FF F0 FF 
   696)      5832.2  Rx     18F00500  8  FF FF FF FF 20 4E FF FF 
   697)      5832.8  Rx     18FEF200  8  00 00 00 00 99 68 0F FF 
   698)      5833.4  Rx     18FF6D00  8  31 F1 31 FF FF FF FF FF 
   699)      5840.7  Rx     0CF00400  8  FF FF FF 00 00 FF FF 72 
   700)      5841.3  Rx     0CFF6600  8  00 00 FF C4 00 00 00 FF 
   701)      5847.5  Rx     18F0010B  8  CF FF FF FF FF DC 0B FF 
   702)      5848.1  Rx     18FEBF0B  8  00 00 00 00 7D FF FF FF 
   703)      5848.7  Rx     18FEF10B  8  3F 00 00 FF FF FF FF FF 
   704)      5855.3  Rx     18FEF187  8  FF FF FF 3F FF FF AF 6F 
   705)      5855.8  Rx     18FEF186  8  FF FF FF F3 CC FF AF 90 
   706)      5860.7  Rx     0CF00400  8  FF FF FF 00 00 FF FF 72 
   707)      5861.3  Rx     0CFF6600  8  00 00 FF C4 00 00 00 FF 
   708)      5880.7  Rx     0CF00400  8  FF FF FF 00 00 FF FF 72 
   709)      5881.3  Rx     0CFF6600  8  00 00 FF C4 00 00 00 FF 
   710)      5899.4  Rx     10FF6527  8  FF FF FF CF FF FF FF FF 
   711)      5900.7  Rx     0CF00400  8  FF FF FF 00 00 FF FF 72 
   712)      5901.3  Rx     0CFF6600  8  00 00 FF C4 00 00 00 FF 
   713)      5920.7  Rx     0CF00400  8  FF FF FF 00 00 FF FF 72 
   714)      5921.3  Rx     0CFF6600  8  00 00 FF C4 00 00 00 FF 
   715)      5931.4  Rx     18FEF100  8  FF FF FF CC FF FF F0 FF 
   716)      5932.0  Rx     10FF6500  8  FF FF FF FF 3F FF FF FC 
   717)      5932.6  Rx     18F00500  8  FF FF FF FF 20 4E FF FF 
   718)      5933.2  Rx     18FEF200  8  00 00 00 00 99 68 0F FF 
   719)      5933.8  Rx     18FF6D00  8  31 F1 31 FF FF FF FF FF 
   720)      5935.9  Rx     10FF6586  8  F3 FF FF F3 3F FF F0 F3 
   721)      5940.6  Rx     0CF00400  8  FF FF FF 00 00 FF FF 72 
   722)      5941.2  Rx     0CFF6600  8  00 00 FF C4 00 00 00 FF 
   723)      5947.6  Rx     18F0010B  8  CF FF FF FF FF DC 0B FF 
   724)      5948.1  Rx     18FEBF0B  8  00 00 00 00 7D FF FF FF 
   725)      5948.7  Rx     18FECA0B  8  04 FF 00 00 00 00 FF FF 
   726)      5949.3  Rx     18FEF10B  8  3F 00 00 FF FF FF FF FF 
   727)      5955.2  Rx     10FF6587  8  1C 03 FF FC FF FF FF FF 
   728)      5955.8  Rx     18FEF186  8  FF FF FF F3 CC FF BF 80 
   729)      5956.4  Rx     18FEF187  8  FF FF FF 3F FF FF BF 7F 
   730)      5960.7  Rx     0CF00400  8  FF FF FF 00 00 FF FF 72 
   731)      5961.3  Rx     0CFF6600  8  00 00 FF C4 00 00 00 FF 
   732)      5980.7  Rx     0CF00400  8  FF FF FF 00 00 FF FF 72 
   733)      5981.3  Rx     0CFF6600  8  00 00 FF C4 00 00 00 FF 
   734)      5999.4  Rx     1CFF6A27  8  3F FC 00 F3 FF FF FF FF 
   735)      6000.7  Rx     0CF00400  8  FF FF FF 00 00 FF FF 72 
   736)      6001.3  Rx     0CFF6600  8  00 00 FF C4 00 00 00 FF 
   737)      6020.6  Rx     0CF00400  8  FF FF FF 00 00 FF FF 72 
   738)      6021.2  Rx     0CFF6600  8  00 00 FF C4 00 00 00 FF 
   739)      6031.5  Rx     18FEF100  8  FF FF FF CC FF FF F0 FF 
